


                                __________________________________________
                               |                                          |
                               | NUMERICAL ELECTROMAGNETICS CODE (nec2++) |
                               | Translated to 'C++' in Double Precision  |
                               |        Version 1.5.1 [2014-01-02]        |
                               |__________________________________________|



                                -------- STRUCTURE SPECIFICATION --------
                                COORDINATES MUST BE INPUT IN
                                METERS OR BE SCALED TO METERS
                                BEFORE STRUCTURE INPUT IS ENDED
  WIRE                                                                                 SEG FIRST  LAST  TAG
   No:        X1         Y1         Z1         X2         Y2         Z2       RADIUS   No:   SEG   SEG  No:

     1     -0.6096     0.6096     0.2500    -0.6096     0.6096     0.4800     0.0010     8     1     8    1
     2     -0.6096     0.6096     0.0200    -0.6096     0.6096     0.2500     0.0010     8     9    16    2
     STRUCTURE SCALED BY FACTOR:    1.00000

     TOTAL SEGMENTS USED: 16   SEGMENTS IN A SYMMETRIC CELL: 16   SYMMETRY FLAG: 0


                               ---------- SEGMENTATION DATA ----------
                                        COORDINATES IN METERS
                            I+ AND I- INDICATE THE SEGMENTS BEFORE AND AFTER I

   SEG    COORDINATES OF SEGM CENTER     SEGM    ORIENTATION ANGLES    WIRE    CONNECTION DATA   TAG
   No:       X         Y         Z      LENGTH     ALPHA      BETA    RADIUS    I-     I    I+   NO:
     1   -0.6096    0.6096    0.2644    0.0287   90.0000    0.0000    0.0010    16     1     2     1
     2   -0.6096    0.6096    0.2931    0.0287   90.0000    0.0000    0.0010     1     2     3     1
     3   -0.6096    0.6096    0.3219    0.0287   90.0000    0.0000    0.0010     2     3     4     1
     4   -0.6096    0.6096    0.3506    0.0287   90.0000    0.0000    0.0010     3     4     5     1
     5   -0.6096    0.6096    0.3794    0.0287   90.0000    0.0000    0.0010     4     5     6     1
     6   -0.6096    0.6096    0.4081    0.0287   90.0000    0.0000    0.0010     5     6     7     1
     7   -0.6096    0.6096    0.4369    0.0287   90.0000    0.0000    0.0010     6     7     8     1
     8   -0.6096    0.6096    0.4656    0.0287   90.0000    0.0000    0.0010     7     8     0     1
     9   -0.6096    0.6096    0.0344    0.0288   90.0000    0.0000    0.0010     0     9    10     2
    10   -0.6096    0.6096    0.0631    0.0287   90.0000    0.0000    0.0010     9    10    11     2
    11   -0.6096    0.6096    0.0919    0.0287   90.0000    0.0000    0.0010    10    11    12     2
    12   -0.6096    0.6096    0.1206    0.0288   90.0000    0.0000    0.0010    11    12    13     2
    13   -0.6096    0.6096    0.1494    0.0287   90.0000    0.0000    0.0010    12    13    14     2
    14   -0.6096    0.6096    0.1781    0.0287   90.0000    0.0000    0.0010    13    14    15     2
    15   -0.6096    0.6096    0.2069    0.0287   90.0000    0.0000    0.0010    14    15    16     2
    16   -0.6096    0.6096    0.2356    0.0287   90.0000    0.0000    0.0010    15    16     1     2



*****  DATA CARD N0.   1 GN  -1     0     0     0  0.00000E+00  0.00000E+00  0.00000E+00  0.00000E+00  0.00000E+00  0.00000E+00
*****  DATA CARD N0.   2 FR   0     1     0     0  1.00000E+02  1.00000E+01  0.00000E+00  0.00000E+00  0.00000E+00  0.00000E+00
*****  DATA CARD N0.   3 EX   0     1     1     0  1.00000E+00  0.00000E+00  0.00000E+00  0.00000E+00  0.00000E+00  0.00000E+00
*****  DATA CARD N0.   4 RP   0    46    90  1000  0.00000E+00  0.00000E+00  4.00000E+00  4.00000E+00  0.00000E+00  0.00000E+00


                               --------- FREQUENCY --------
                               FREQUENCY=  1.0000E+02 MHZ
                               WAVELENGTH= 2.9980E+00 METERS


                        APPROXIMATE INTEGRATION EMPLOYED FOR SEGMENTS
                        THAT ARE MORE THAN 1.000 WAVELENGTHS APART
WARNING- SEGMENT[0] LENGTH TOO SMALL (0.009590)
WARNING- SEGMENT[1] LENGTH TOO SMALL (0.009590)
WARNING- SEGMENT[2] LENGTH TOO SMALL (0.009590)
WARNING- SEGMENT[3] LENGTH TOO SMALL (0.009590)
WARNING- SEGMENT[4] LENGTH TOO SMALL (0.009590)
WARNING- SEGMENT[5] LENGTH TOO SMALL (0.009590)
WARNING- SEGMENT[6] LENGTH TOO SMALL (0.009590)
WARNING- SEGMENT[7] LENGTH TOO SMALL (0.009590)
WARNING- SEGMENT[8] LENGTH TOO SMALL (0.009590)
WARNING- SEGMENT[9] LENGTH TOO SMALL (0.009590)
WARNING- SEGMENT[10] LENGTH TOO SMALL (0.009590)
WARNING- SEGMENT[11] LENGTH TOO SMALL (0.009590)
WARNING- SEGMENT[12] LENGTH TOO SMALL (0.009590)
WARNING- SEGMENT[13] LENGTH TOO SMALL (0.009590)
WARNING- SEGMENT[14] LENGTH TOO SMALL (0.009590)
WARNING- SEGMENT[15] LENGTH TOO SMALL (0.009590)



                          ------ STRUCTURE IMPEDANCE LOADING ------
                                 THIS STRUCTURE IS NOT LOADED



                            -------- ANTENNA ENVIRONMENT --------
                            FREE SPACE



                             ---------- MATRIX TIMING ----------
                               FILL= 0 msec  FACTOR: 0 msec


                      ----- ANTENNA INPUT PARAMETERS -----
  TAG   SEG       VOLTAGE (VOLTS)         CURRENT (AMPS)         IMPEDANCE (OHMS)        ADMITTANCE (MHOS)     POWER
  NO.   NO.     REAL      IMAGINARY     REAL      IMAGINARY     REAL      IMAGINARY    REAL       IMAGINARY   (WATTS)
   1     1  1.0000E+00  0.0000E+00  4.4650E-06  9.5791E-04  4.8658E+00 -1.0439E+03  4.4650E-06  9.5791E-04  2.2325E-06







                        ----- CURRENTS AND LOCATION -----
                            DISTANCES IN WAVELENGTHS 

   SEG  TAG    COORDINATES OF SEGM CENTER     SEGM    ------------- CURRENT (AMPS) -------------
   No:  No:       X         Y         Z      LENGTH     REAL      IMAGINARY    MAGN        PHASE
     1    1   -0.2033    0.2033    0.0882   0.00959  4.4650E-06  9.5791E-04  9.5792E-04   89.733 
     2    1   -0.2033    0.2033    0.0978   0.00959  4.3392E-06  8.3529E-04  8.3531E-04   89.702 
     3    1   -0.2033    0.2033    0.1074   0.00959  4.0867E-06  7.0275E-04  7.0276E-04   89.667 
     4    1   -0.2033    0.2033    0.1170   0.00959  3.7062E-06  5.8071E-04  5.8072E-04   89.634 
     5    1   -0.2033    0.2033    0.1265   0.00959  3.1944E-06  4.6109E-04  4.6111E-04   89.603 
     6    1   -0.2033    0.2033    0.1361   0.00959  2.5451E-06  3.4112E-04  3.4113E-04   89.573 
     7    1   -0.2033    0.2033    0.1457   0.00959  1.7439E-06  2.1835E-04  2.1835E-04   89.542 
     8    1   -0.2033    0.2033    0.1553   0.00959  7.1984E-07  8.4693E-05  8.4697E-05   89.513 
     9    2   -0.2033    0.2033    0.0115   0.00959  7.1942E-07  7.5798E-05  7.5801E-05   89.456 
    10    2   -0.2033    0.2033    0.0211   0.00959  1.7430E-06  1.9521E-04  1.9521E-04   89.488 
    11    2   -0.2033    0.2033    0.0306   0.00959  2.5440E-06  3.0455E-04  3.0456E-04   89.521 
    12    2   -0.2033    0.2033    0.0402   0.00959  3.1933E-06  4.1088E-04  4.1089E-04   89.555 
    13    2   -0.2033    0.2033    0.0498   0.00959  3.7052E-06  5.1602E-04  5.1603E-04   89.589 
    14    2   -0.2033    0.2033    0.0594   0.00959  4.0860E-06  6.2152E-04  6.2154E-04   89.623 
    15    2   -0.2033    0.2033    0.0690   0.00959  4.3387E-06  7.2981E-04  7.2982E-04   89.659 
    16    2   -0.2033    0.2033    0.0786   0.00959  4.4648E-06  8.4879E-04  8.4880E-04   89.699 






                               ---------- POWER BUDGET ---------
                               INPUT POWER   =  2.2325E-06 Watts
                               RADIATED POWER=  2.2325E-06 Watts
                               STRUCTURE LOSS=  0.0000E+00 Watts
                               NETWORK LOSS  =  0.0000E+00 Watts
                               EFFICIENCY    =  100.00 Percent


                         ----- RADIATION PATTERNS -----
 ---- ANGLES -----     ----- POWER GAINS -----       ---- POLARIZATION ----   ---- E(THETA) ----    ----- E(PHI) ------
  THETA      PHI       VERTC   HORIZ   TOTAL       AXIAL      TILT  SENSE   MAGNITUDE    PHASE    MAGNITUDE     PHASE
 DEGREES   DEGREES        DB       DB       DB       RATIO   DEGREES            VOLTS/M   DEGREES     VOLTS/M   DEGREES
    0.00      0.00   -999.99  -999.99  -999.99      0.0000      0.00         0.0000E+00      0.00  0.0000E+00      0.00
    4.00      0.00    -21.51  -999.99   -21.51      0.0000     -0.00 LINEAR  9.7180E-04   -154.95  0.0000E+00      0.00
    8.00      0.00    -15.51  -999.99   -15.51      0.0000     -0.00 LINEAR  1.9394E-03   -160.26  0.0000E+00      0.00
   12.00      0.00    -12.02  -999.99   -12.02      0.0000     -0.00 LINEAR  2.8988E-03   -165.66  0.0000E+00      0.00
   16.00      0.00     -9.57  -999.99    -9.57      0.0000     -0.00 LINEAR  3.8456E-03   -171.13  0.0000E+00      0.00
   20.00      0.00     -7.69  -999.99    -7.69      0.0000     -0.00 LINEAR  4.7758E-03   -176.65  0.0000E+00      0.00
   24.00      0.00     -6.17  -999.99    -6.17      0.0000     -0.00 LINEAR  5.6850E-03    177.81  0.0000E+00      0.00
   28.00      0.00     -4.92  -999.99    -4.92      0.0000     -0.00 LINEAR  6.5693E-03    172.28  0.0000E+00      0.00
   32.00      0.00     -3.85  -999.99    -3.85      0.0000     -0.00 LINEAR  7.4243E-03    166.79  0.0000E+00      0.00
   36.00      0.00     -2.94  -999.99    -2.94      0.0000     -0.00 LINEAR  8.2459E-03    161.36  0.0000E+00      0.00
   40.00      0.00     -2.15  -999.99    -2.15      0.0000     -0.00 LINEAR  9.0300E-03    156.02  0.0000E+00      0.00
   44.00      0.00     -1.47  -999.99    -1.47      0.0000     -0.00 LINEAR  9.7726E-03    150.79  0.0000E+00      0.00
   48.00      0.00     -0.87  -999.99    -0.87      0.0000     -0.00 LINEAR  1.0470E-02    145.71  0.0000E+00      0.00
   52.00      0.00     -0.35  -999.99    -0.35      0.0000     -0.00 LINEAR  1.1117E-02    140.79  0.0000E+00      0.00
   56.00      0.00      0.11  -999.99     0.11      0.0000     -0.00 LINEAR  1.1712E-02    136.06  0.0000E+00      0.00
   60.00      0.00      0.50  -999.99     0.50      0.0000     -0.00 LINEAR  1.2250E-02    131.54  0.0000E+00      0.00
   64.00      0.00      0.83  -999.99     0.83      0.0000     -0.00 LINEAR  1.2729E-02    127.25  0.0000E+00      0.00
   68.00      0.00      1.11  -999.99     1.11      0.0000     -0.00 LINEAR  1.3145E-02    123.23  0.0000E+00      0.00
   72.00      0.00      1.34  -999.99     1.34      0.0000     -0.00 LINEAR  1.3496E-02    119.47  0.0000E+00      0.00
   76.00      0.00      1.52  -999.99     1.52      0.0000     -0.00 LINEAR  1.3779E-02    116.01  0.0000E+00      0.00
   80.00      0.00      1.65  -999.99     1.65      0.0000     -0.00 LINEAR  1.3993E-02    112.86  0.0000E+00      0.00
   84.00      0.00      1.74  -999.99     1.74      0.0000     -0.00 LINEAR  1.4137E-02    110.04  0.0000E+00      0.00
   88.00      0.00      1.78  -999.99     1.78      0.0000     -0.00 LINEAR  1.4209E-02    107.55  0.0000E+00      0.00
   92.00      0.00      1.78  -999.99     1.78      0.0000     -0.00 LINEAR  1.4209E-02    105.42  0.0000E+00      0.00
   96.00      0.00      1.74  -999.99     1.74      0.0000     -0.00 LINEAR  1.4137E-02    103.64  0.0000E+00      0.00
  100.00      0.00      1.65  -999.99     1.65      0.0000     -0.00 LINEAR  1.3994E-02    102.24  0.0000E+00      0.00
  104.00      0.00      1.52  -999.99     1.52      0.0000     -0.00 LINEAR  1.3779E-02    101.21  0.0000E+00      0.00
  108.00      0.00      1.34  -999.99     1.34      0.0000     -0.00 LINEAR  1.3496E-02    100.57  0.0000E+00      0.00
  112.00      0.00      1.11  -999.99     1.11      0.0000     -0.00 LINEAR  1.3145E-02    100.31  0.0000E+00      0.00
  116.00      0.00      0.83  -999.99     0.83      0.0000     -0.00 LINEAR  1.2729E-02    100.44  0.0000E+00      0.00
  120.00      0.00      0.50  -999.99     0.50      0.0000     -0.00 LINEAR  1.2251E-02    100.95  0.0000E+00      0.00
  124.00      0.00      0.11  -999.99     0.11      0.0000     -0.00 LINEAR  1.1713E-02    101.85  0.0000E+00      0.00
  128.00      0.00     -0.35  -999.99    -0.35      0.0000     -0.00 LINEAR  1.1118E-02    103.13  0.0000E+00      0.00
  132.00      0.00     -0.87  -999.99    -0.87      0.0000     -0.00 LINEAR  1.0470E-02    104.78  0.0000E+00      0.00
  136.00      0.00     -1.47  -999.99    -1.47      0.0000     -0.00 LINEAR  9.7735E-03    106.79  0.0000E+00      0.00
  140.00      0.00     -2.15  -999.99    -2.15      0.0000     -0.00 LINEAR  9.0309E-03    109.16  0.0000E+00      0.00
  144.00      0.00     -2.94  -999.99    -2.94      0.0000     -0.00 LINEAR  8.2468E-03    111.87  0.0000E+00      0.00
  148.00      0.00     -3.85  -999.99    -3.85      0.0000     -0.00 LINEAR  7.4251E-03    114.91  0.0000E+00      0.00
  152.00      0.00     -4.92  -999.99    -4.92      0.0000     -0.00 LINEAR  6.5700E-03    118.27  0.0000E+00      0.00
  156.00      0.00     -6.17  -999.99    -6.17      0.0000     -0.00 LINEAR  5.6857E-03    121.93  0.0000E+00      0.00
  160.00      0.00     -7.68  -999.99    -7.68      0.0000     -0.00 LINEAR  4.7763E-03    125.86  0.0000E+00      0.00
  164.00      0.00     -9.57  -999.99    -9.57      0.0000     -0.00 LINEAR  3.8461E-03    130.06  0.0000E+00      0.00
  168.00      0.00    -12.02  -999.99   -12.02      0.0000     -0.00 LINEAR  2.8991E-03    134.50  0.0000E+00      0.00
  172.00      0.00    -15.51  -999.99   -15.51      0.0000     -0.00 LINEAR  1.9397E-03    139.16  0.0000E+00      0.00
  176.00      0.00    -21.51  -999.99   -21.51      0.0000     -0.00 LINEAR  9.7192E-04    144.02  0.0000E+00      0.00
  180.00      0.00   -999.99  -999.99  -999.99      0.0000      0.00         1.4220E-13    -30.95  0.0000E+00      0.00
    0.00      4.00   -999.99  -999.99  -999.99      0.0000      0.00         0.0000E+00      0.00  0.0000E+00      0.00
    4.00      4.00    -21.51  -999.99   -21.51      0.0000     -0.00 LINEAR  9.7180E-04   -154.58  0.0000E+00      0.00
    8.00      4.00    -15.51  -999.99   -15.51      0.0000     -0.00 LINEAR  1.9394E-03   -159.52  0.0000E+00      0.00
   12.00      4.00    -12.02  -999.99   -12.02      0.0000     -0.00 LINEAR  2.8988E-03   -164.56  0.0000E+00      0.00
   16.00      4.00     -9.57  -999.99    -9.57      0.0000     -0.00 LINEAR  3.8456E-03   -169.68  0.0000E+00      0.00
   20.00      4.00     -7.69  -999.99    -7.69      0.0000     -0.00 LINEAR  4.7758E-03   -174.85  0.0000E+00      0.00
   24.00      4.00     -6.17  -999.99    -6.17      0.0000     -0.00 LINEAR  5.6850E-03    179.96  0.0000E+00      0.00
   28.00      4.00     -4.92  -999.99    -4.92      0.0000     -0.00 LINEAR  6.5693E-03    174.76  0.0000E+00      0.00
   32.00      4.00     -3.85  -999.99    -3.85      0.0000     -0.00 LINEAR  7.4243E-03    169.59  0.0000E+00      0.00
   36.00      4.00     -2.94  -999.99    -2.94      0.0000     -0.00 LINEAR  8.2459E-03    164.46  0.0000E+00      0.00
   40.00      4.00     -2.15  -999.99    -2.15      0.0000     -0.00 LINEAR  9.0300E-03    159.41  0.0000E+00      0.00
   44.00      4.00     -1.47  -999.99    -1.47      0.0000     -0.00 LINEAR  9.7726E-03    154.46  0.0000E+00      0.00
   48.00      4.00     -0.87  -999.99    -0.87      0.0000     -0.00 LINEAR  1.0470E-02    149.63  0.0000E+00      0.00
   52.00      4.00     -0.35  -999.99    -0.35      0.0000     -0.00 LINEAR  1.1117E-02    144.95  0.0000E+00      0.00
   56.00      4.00      0.11  -999.99     0.11      0.0000     -0.00 LINEAR  1.1712E-02    140.44  0.0000E+00      0.00
   60.00      4.00      0.50  -999.99     0.50      0.0000     -0.00 LINEAR  1.2250E-02    136.11  0.0000E+00      0.00
   64.00      4.00      0.83  -999.99     0.83      0.0000     -0.00 LINEAR  1.2729E-02    132.00  0.0000E+00      0.00
   68.00      4.00      1.11  -999.99     1.11      0.0000     -0.00 LINEAR  1.3145E-02    128.12  0.0000E+00      0.00
   72.00      4.00      1.34  -999.99     1.34      0.0000     -0.00 LINEAR  1.3496E-02    124.50  0.0000E+00      0.00
   76.00      4.00      1.52  -999.99     1.52      0.0000     -0.00 LINEAR  1.3779E-02    121.14  0.0000E+00      0.00
   80.00      4.00      1.65  -999.99     1.65      0.0000     -0.00 LINEAR  1.3993E-02    118.07  0.0000E+00      0.00
   84.00      4.00      1.74  -999.99     1.74      0.0000     -0.00 LINEAR  1.4137E-02    115.29  0.0000E+00      0.00
   88.00      4.00      1.78  -999.99     1.78      0.0000     -0.00 LINEAR  1.4209E-02    112.83  0.0000E+00      0.00
   92.00      4.00      1.78  -999.99     1.78      0.0000     -0.00 LINEAR  1.4209E-02    110.70  0.0000E+00      0.00
   96.00      4.00      1.74  -999.99     1.74      0.0000     -0.00 LINEAR  1.4137E-02    108.90  0.0000E+00      0.00
  100.00      4.00      1.65  -999.99     1.65      0.0000     -0.00 LINEAR  1.3994E-02    107.44  0.0000E+00      0.00
  104.00      4.00      1.52  -999.99     1.52      0.0000     -0.00 LINEAR  1.3779E-02    106.34  0.0000E+00      0.00
  108.00      4.00      1.34  -999.99     1.34      0.0000     -0.00 LINEAR  1.3496E-02    105.60  0.0000E+00      0.00
  112.00      4.00      1.11  -999.99     1.11      0.0000     -0.00 LINEAR  1.3145E-02    105.21  0.0000E+00      0.00
  116.00      4.00      0.83  -999.99     0.83      0.0000     -0.00 LINEAR  1.2729E-02    105.19  0.0000E+00      0.00
  120.00      4.00      0.50  -999.99     0.50      0.0000     -0.00 LINEAR  1.2251E-02    105.53  0.0000E+00      0.00
  124.00      4.00      0.11  -999.99     0.11      0.0000     -0.00 LINEAR  1.1713E-02    106.23  0.0000E+00      0.00
  128.00      4.00     -0.35  -999.99    -0.35      0.0000     -0.00 LINEAR  1.1118E-02    107.29  0.0000E+00      0.00
  132.00      4.00     -0.87  -999.99    -0.87      0.0000     -0.00 LINEAR  1.0470E-02    108.70  0.0000E+00      0.00
  136.00      4.00     -1.47  -999.99    -1.47      0.0000     -0.00 LINEAR  9.7735E-03    110.46  0.0000E+00      0.00
  140.00      4.00     -2.15  -999.99    -2.15      0.0000     -0.00 LINEAR  9.0309E-03    112.56  0.0000E+00      0.00
  144.00      4.00     -2.94  -999.99    -2.94      0.0000     -0.00 LINEAR  8.2468E-03    114.98  0.0000E+00      0.00
  148.00      4.00     -3.85  -999.99    -3.85      0.0000     -0.00 LINEAR  7.4251E-03    117.71  0.0000E+00      0.00
  152.00      4.00     -4.92  -999.99    -4.92      0.0000     -0.00 LINEAR  6.5700E-03    120.75  0.0000E+00      0.00
  156.00      4.00     -6.17  -999.99    -6.17      0.0000     -0.00 LINEAR  5.6857E-03    124.07  0.0000E+00      0.00
  160.00      4.00     -7.68  -999.99    -7.68      0.0000     -0.00 LINEAR  4.7763E-03    127.67  0.0000E+00      0.00
  164.00      4.00     -9.57  -999.99    -9.57      0.0000     -0.00 LINEAR  3.8461E-03    131.52  0.0000E+00      0.00
  168.00      4.00    -12.02  -999.99   -12.02      0.0000     -0.00 LINEAR  2.8991E-03    135.60  0.0000E+00      0.00
  172.00      4.00    -15.51  -999.99   -15.51      0.0000     -0.00 LINEAR  1.9397E-03    139.90  0.0000E+00      0.00
  176.00      4.00    -21.51  -999.99   -21.51      0.0000     -0.00 LINEAR  9.7192E-04    144.39  0.0000E+00      0.00
  180.00      4.00   -999.99  -999.99  -999.99      0.0000      0.00         1.4220E-13    -30.95  0.0000E+00      0.00
    0.00      8.00   -999.99  -999.99  -999.99      0.0000      0.00         0.0000E+00      0.00  0.0000E+00      0.00
    4.00      8.00    -21.51  -999.99   -21.51      0.0000     -0.00 LINEAR  9.7180E-04   -154.19  0.0000E+00      0.00
    8.00      8.00    -15.51  -999.99   -15.51      0.0000     -0.00 LINEAR  1.9394E-03   -158.74  0.0000E+00      0.00
   12.00      8.00    -12.02  -999.99   -12.02      0.0000     -0.00 LINEAR  2.8988E-03   -163.39  0.0000E+00      0.00
