


                                __________________________________________
                               |                                          |
                               | NUMERICAL ELECTROMAGNETICS CODE (nec2++) |
                               | Translated to 'C++' in Double Precision  |
                               |        Version 1.5.1 [2014-01-21]        |
                               |__________________________________________|



                                -------- STRUCTURE SPECIFICATION --------
                                COORDINATES MUST BE INPUT IN
                                METERS OR BE SCALED TO METERS
                                BEFORE STRUCTURE INPUT IS ENDED
  WIRE                                                                                 SEG FIRST  LAST  TAG
   No:        X1         Y1         Z1         X2         Y2         Z2       RADIUS   No:   SEG   SEG  No:

     1      0.1016     0.1016     0.6932     0.1016     0.1016     1.1632     0.0010     8     1     8    1
     2      0.1016     0.1016     0.2232     0.1016     0.1016     0.6932     0.0010     8     9    16    2
     STRUCTURE SCALED BY FACTOR:    1.00000

     TOTAL SEGMENTS USED: 16   SEGMENTS IN A SYMMETRIC CELL: 16   SYMMETRY FLAG: 0


                               ---------- SEGMENTATION DATA ----------
                                        COORDINATES IN METERS
                            I+ AND I- INDICATE THE SEGMENTS BEFORE AND AFTER I

   SEG    COORDINATES OF SEGM CENTER     SEGM    ORIENTATION ANGLES    WIRE    CONNECTION DATA   TAG
   No:       X         Y         Z      LENGTH     ALPHA      BETA    RADIUS    I-     I    I+   NO:
     1    0.1016    0.1016    0.7226    0.0587   90.0000    0.0000    0.0010    16     1     2     1
     2    0.1016    0.1016    0.7813    0.0587   90.0000    0.0000    0.0010     1     2     3     1
     3    0.1016    0.1016    0.8401    0.0587   90.0000    0.0000    0.0010     2     3     4     1
     4    0.1016    0.1016    0.8988    0.0587   90.0000    0.0000    0.0010     3     4     5     1
     5    0.1016    0.1016    0.9576    0.0587   90.0000    0.0000    0.0010     4     5     6     1
     6    0.1016    0.1016    1.0163    0.0587   90.0000    0.0000    0.0010     5     6     7     1
     7    0.1016    0.1016    1.0751    0.0588   90.0000    0.0000    0.0010     6     7     8     1
     8    0.1016    0.1016    1.1338    0.0588   90.0000    0.0000    0.0010     7     8     0     1
     9    0.1016    0.1016    0.2526    0.0588   90.0000    0.0000    0.0010     0     9    10     2
    10    0.1016    0.1016    0.3113    0.0588   90.0000    0.0000    0.0010     9    10    11     2
    11    0.1016    0.1016    0.3701    0.0588   90.0000    0.0000    0.0010    10    11    12     2
    12    0.1016    0.1016    0.4288    0.0588   90.0000    0.0000    0.0010    11    12    13     2
    13    0.1016    0.1016    0.4876    0.0588   90.0000    0.0000    0.0010    12    13    14     2
    14    0.1016    0.1016    0.5463    0.0587   90.0000    0.0000    0.0010    13    14    15     2
    15    0.1016    0.1016    0.6051    0.0587   90.0000    0.0000    0.0010    14    15    16     2
    16    0.1016    0.1016    0.6638    0.0587   90.0000    0.0000    0.0010    15    16     1     2



*****  DATA CARD N0.   1 GN  -1     0     0     0  0.00000E+00  0.00000E+00  0.00000E+00  0.00000E+00  0.00000E+00  0.00000E+00
*****  DATA CARD N0.   2 FR   0     1     0     0  1.00000E+02  1.00000E+01  0.00000E+00  0.00000E+00  0.00000E+00  0.00000E+00
*****  DATA CARD N0.   3 EX   0     1     1     0  1.00000E+00  0.00000E+00  0.00000E+00  0.00000E+00  0.00000E+00  0.00000E+00
*****  DATA CARD N0.   4 RP   0    46    90  1000  0.00000E+00  0.00000E+00  4.00000E+00  4.00000E+00  0.00000E+00  0.00000E+00


                               --------- FREQUENCY --------
                               FREQUENCY=  1.0000E+02 MHZ
                               WAVELENGTH= 2.9980E+00 METERS


                        APPROXIMATE INTEGRATION EMPLOYED FOR SEGMENTS
                        THAT ARE MORE THAN 1.000 WAVELENGTHS APART
WARNING- SEGMENT[0] LENGTH TOO SMALL (0.019597)
WARNING- SEGMENT[1] LENGTH TOO SMALL (0.019597)
WARNING- SEGMENT[2] LENGTH TOO SMALL (0.019597)
WARNING- SEGMENT[3] LENGTH TOO SMALL (0.019597)
WARNING- SEGMENT[4] LENGTH TOO SMALL (0.019597)
WARNING- SEGMENT[5] LENGTH TOO SMALL (0.019597)
WARNING- SEGMENT[6] LENGTH TOO SMALL (0.019597)
WARNING- SEGMENT[7] LENGTH TOO SMALL (0.019597)
WARNING- SEGMENT[8] LENGTH TOO SMALL (0.019597)
WARNING- SEGMENT[9] LENGTH TOO SMALL (0.019597)
WARNING- SEGMENT[10] LENGTH TOO SMALL (0.019597)
WARNING- SEGMENT[11] LENGTH TOO SMALL (0.019597)
WARNING- SEGMENT[12] LENGTH TOO SMALL (0.019597)
WARNING- SEGMENT[13] LENGTH TOO SMALL (0.019597)
WARNING- SEGMENT[14] LENGTH TOO SMALL (0.019597)
WARNING- SEGMENT[15] LENGTH TOO SMALL (0.019597)



                          ------ STRUCTURE IMPEDANCE LOADING ------
                                 THIS STRUCTURE IS NOT LOADED



                            -------- ANTENNA ENVIRONMENT --------
                            FREE SPACE



                             ---------- MATRIX TIMING ----------
                               FILL= 0 msec  FACTOR: 0 msec


                      ----- ANTENNA INPUT PARAMETERS -----
  TAG   SEG       VOLTAGE (VOLTS)         CURRENT (AMPS)         IMPEDANCE (OHMS)        ADMITTANCE (MHOS)     POWER
  NO.   NO.     REAL      IMAGINARY     REAL      IMAGINARY     REAL      IMAGINARY    REAL       IMAGINARY   (WATTS)
   1     1  1.0000E+00  0.0000E+00  1.4568E-04  2.4820E-03  2.3567E+01 -4.0152E+02  1.4568E-04  2.4820E-03  7.2839E-05







                        ----- CURRENTS AND LOCATION -----
                            DISTANCES IN WAVELENGTHS 

   SEG  TAG    COORDINATES OF SEGM CENTER     SEGM    ------------- CURRENT (AMPS) -------------
   No:  No:       X         Y         Z      LENGTH     REAL      IMAGINARY    MAGN        PHASE
     1    1    0.0339    0.0339    0.2410   0.01960  1.4568E-04  2.4820E-03  2.4862E-03   86.641 
     2    1    0.0339    0.0339    0.2606   0.01960  1.4116E-04  2.2484E-03  2.2529E-03   86.408 
     3    1    0.0339    0.0339    0.2802   0.01960  1.3216E-04  1.9605E-03  1.9650E-03   86.144 
     4    1    0.0339    0.0339    0.2998   0.01960  1.1875E-04  1.6616E-03  1.6659E-03   85.912 
     5    1    0.0339    0.0339    0.3194   0.01960  1.0102E-04  1.3432E-03  1.3470E-03   85.699 
     6    1    0.0339    0.0339    0.3390   0.01960  7.9052E-05  1.0040E-03  1.0071E-03   85.498 
     7    1    0.0339    0.0339    0.3586   0.01960  5.2747E-05  6.4238E-04  6.4454E-04   85.306 
     8    1    0.0339    0.0339    0.3782   0.01960  2.0697E-05  2.4257E-04  2.4345E-04   85.123 
     9    2    0.0339    0.0339    0.0842   0.01960  2.0674E-05  2.2535E-04  2.2630E-04   84.758 
    10    2    0.0339    0.0339    0.1038   0.01960  5.2696E-05  5.9638E-04  5.9870E-04   84.950 
    11    2    0.0339    0.0339    0.1234   0.01960  7.8988E-05  9.3128E-04  9.3462E-04   85.152 
    12    2    0.0339    0.0339    0.1430   0.01960  1.0095E-04  1.2444E-03  1.2485E-03   85.362 
    13    2    0.0339    0.0339    0.1626   0.01960  1.1869E-04  1.5367E-03  1.5413E-03   85.584 
    14    2    0.0339    0.0339    0.1822   0.01960  1.3211E-04  1.8077E-03  1.8126E-03   85.820 
    15    2    0.0339    0.0339    0.2018   0.01960  1.4113E-04  2.0585E-03  2.0633E-03   86.078 
    16    2    0.0339    0.0339    0.2214   0.01960  1.4567E-04  2.2976E-03  2.3022E-03   86.372 






                               ---------- POWER BUDGET ---------
                               INPUT POWER   =  7.2839E-05 Watts
                               RADIATED POWER=  7.2839E-05 Watts
                               STRUCTURE LOSS=  0.0000E+00 Watts
                               NETWORK LOSS  =  0.0000E+00 Watts
                               EFFICIENCY    =  100.00 Percent


                         ----- RADIATION PATTERNS -----
 ---- ANGLES -----     ----- POWER GAINS -----       ---- POLARIZATION ----   ---- E(THETA) ----    ----- E(PHI) ------
  THETA      PHI       VERTC   HORIZ   TOTAL       AXIAL      TILT  SENSE   MAGNITUDE    PHASE    MAGNITUDE     PHASE
 DEGREES   DEGREES        DB       DB       DB       RATIO   DEGREES            VOLTS/M   DEGREES     VOLTS/M   DEGREES
    0.00      0.00   -999.99  -999.99  -999.99      0.0000      0.00         0.0000E+00      0.00  0.0000E+00      0.00
    4.00      0.00    -22.01  -999.99   -22.01      0.0000     -0.00 LINEAR  5.2461E-03    -99.32  0.0000E+00      0.00
    8.00      0.00    -15.99  -999.99   -15.99      0.0000     -0.00 LINEAR  1.0480E-02    -99.09  0.0000E+00      0.00
   12.00      0.00    -12.49  -999.99   -12.49      0.0000     -0.00 LINEAR  1.5691E-02    -99.27  0.0000E+00      0.00
   16.00      0.00    -10.01  -999.99   -10.01      0.0000     -0.00 LINEAR  2.0864E-02    -99.87  0.0000E+00      0.00
   20.00      0.00     -8.11  -999.99    -8.11      0.0000     -0.00 LINEAR  2.5986E-02   -100.87  0.0000E+00      0.00
   24.00      0.00     -6.56  -999.99    -6.56      0.0000     -0.00 LINEAR  3.1040E-02   -102.28  0.0000E+00      0.00
   28.00      0.00     -5.27  -999.99    -5.27      0.0000     -0.00 LINEAR  3.6007E-02   -104.09  0.0000E+00      0.00
   32.00      0.00     -4.17  -999.99    -4.17      0.0000     -0.00 LINEAR  4.0866E-02   -106.29  0.0000E+00      0.00
   36.00      0.00     -3.22  -999.99    -3.22      0.0000     -0.00 LINEAR  4.5595E-02   -108.87  0.0000E+00      0.00
   40.00      0.00     -2.39  -999.99    -2.39      0.0000     -0.00 LINEAR  5.0169E-02   -111.82  0.0000E+00      0.00
   44.00      0.00     -1.66  -999.99    -1.66      0.0000     -0.00 LINEAR  5.4558E-02   -115.11  0.0000E+00      0.00
   48.00      0.00     -1.02  -999.99    -1.02      0.0000     -0.00 LINEAR  5.8736E-02   -118.75  0.0000E+00      0.00
   52.00      0.00     -0.46  -999.99    -0.46      0.0000     -0.00 LINEAR  6.2669E-02   -122.70  0.0000E+00      0.00
   56.00      0.00      0.03  -999.99     0.03      0.0000     -0.00 LINEAR  6.6328E-02   -126.94  0.0000E+00      0.00
   60.00      0.00      0.46  -999.99     0.46      0.0000     -0.00 LINEAR  6.9680E-02   -131.47  0.0000E+00      0.00
   64.00      0.00      0.83  -999.99     0.83      0.0000     -0.00 LINEAR  7.2695E-02   -136.25  0.0000E+00      0.00
   68.00      0.00      1.14  -999.99     1.14      0.0000     -0.00 LINEAR  7.5343E-02   -141.27  0.0000E+00      0.00
   72.00      0.00      1.39  -999.99     1.39      0.0000     -0.00 LINEAR  7.7597E-02   -146.49  0.0000E+00      0.00
   76.00      0.00      1.60  -999.99     1.60      0.0000     -0.00 LINEAR  7.9433E-02   -151.89  0.0000E+00      0.00
   80.00      0.00      1.75  -999.99     1.75      0.0000     -0.00 LINEAR  8.0830E-02   -157.45  0.0000E+00      0.00
   84.00      0.00      1.85  -999.99     1.85      0.0000     -0.00 LINEAR  8.1772E-02   -163.14  0.0000E+00      0.00
   88.00      0.00      1.90  -999.99     1.90      0.0000     -0.00 LINEAR  8.2249E-02   -168.93  0.0000E+00      0.00
   92.00      0.00      1.90  -999.99     1.90      0.0000     -0.00 LINEAR  8.2254E-02   -174.80  0.0000E+00      0.00
   96.00      0.00      1.85  -999.99     1.85      0.0000     -0.00 LINEAR  8.1788E-02    179.29  0.0000E+00      0.00
  100.00      0.00      1.75  -999.99     1.75      0.0000     -0.00 LINEAR  8.0856E-02    173.37  0.0000E+00      0.00
  104.00      0.00      1.60  -999.99     1.60      0.0000     -0.00 LINEAR  7.9469E-02    167.46  0.0000E+00      0.00
  108.00      0.00      1.40  -999.99     1.40      0.0000     -0.00 LINEAR  7.7643E-02    161.58  0.0000E+00      0.00
  112.00      0.00      1.14  -999.99     1.14      0.0000     -0.00 LINEAR  7.5397E-02    155.78  0.0000E+00      0.00
  116.00      0.00      0.84  -999.99     0.84      0.0000     -0.00 LINEAR  7.2756E-02    150.08  0.0000E+00      0.00
  120.00      0.00      0.47  -999.99     0.47      0.0000     -0.00 LINEAR  6.9747E-02    144.51  0.0000E+00      0.00
  124.00      0.00      0.04  -999.99     0.04      0.0000     -0.00 LINEAR  6.6399E-02    139.08  0.0000E+00      0.00
  128.00      0.00     -0.45  -999.99    -0.45      0.0000     -0.00 LINEAR  6.2744E-02    133.84  0.0000E+00      0.00
  132.00      0.00     -1.01  -999.99    -1.01      0.0000     -0.00 LINEAR  5.8811E-02    128.80  0.0000E+00      0.00
  136.00      0.00     -1.65  -999.99    -1.65      0.0000     -0.00 LINEAR  5.4634E-02    123.99  0.0000E+00      0.00
  140.00      0.00     -2.38  -999.99    -2.38      0.0000     -0.00 LINEAR  5.0243E-02    119.43  0.0000E+00      0.00
  144.00      0.00     -3.21  -999.99    -3.21      0.0000     -0.00 LINEAR  4.5667E-02    115.15  0.0000E+00      0.00
  148.00      0.00     -4.16  -999.99    -4.16      0.0000     -0.00 LINEAR  4.0934E-02    111.17  0.0000E+00      0.00
  152.00      0.00     -5.26  -999.99    -5.26      0.0000     -0.00 LINEAR  3.6068E-02    107.50  0.0000E+00      0.00
  156.00      0.00     -6.55  -999.99    -6.55      0.0000     -0.00 LINEAR  3.1095E-02    104.16  0.0000E+00      0.00
  160.00      0.00     -8.09  -999.99    -8.09      0.0000     -0.00 LINEAR  2.6034E-02    101.18  0.0000E+00      0.00
  164.00      0.00    -10.00  -999.99   -10.00      0.0000     -0.00 LINEAR  2.0904E-02     98.56  0.0000E+00      0.00
  168.00      0.00    -12.47  -999.99   -12.47      0.0000     -0.00 LINEAR  1.5721E-02     96.31  0.0000E+00      0.00
  172.00      0.00    -15.98  -999.99   -15.98      0.0000     -0.00 LINEAR  1.0501E-02     94.45  0.0000E+00      0.00
  176.00      0.00    -21.99  -999.99   -21.99      0.0000     -0.00 LINEAR  5.2564E-03     92.99  0.0000E+00      0.00
  180.00      0.00   -999.99  -999.99  -999.99      0.0000      0.00         7.6878E-13    -88.06  0.0000E+00      0.00
    0.00      4.00   -999.99  -999.99  -999.99      0.0000      0.00         0.0000E+00      0.00  0.0000E+00      0.00
    4.00      4.00    -22.01  -999.99   -22.01      0.0000     -0.00 LINEAR  5.2461E-03    -99.26  0.0000E+00      0.00
    8.00      4.00    -15.99  -999.99   -15.99      0.0000     -0.00 LINEAR  1.0480E-02    -98.97  0.0000E+00      0.00
   12.00      4.00    -12.49  -999.99   -12.49      0.0000     -0.00 LINEAR  1.5691E-02    -99.10  0.0000E+00      0.00
   16.00      4.00    -10.01  -999.99   -10.01      0.0000     -0.00 LINEAR  2.0864E-02    -99.64  0.0000E+00      0.00
   20.00      4.00     -8.11  -999.99    -8.11      0.0000     -0.00 LINEAR  2.5986E-02   -100.59  0.0000E+00      0.00
   24.00      4.00     -6.56  -999.99    -6.56      0.0000     -0.00 LINEAR  3.1040E-02   -101.95  0.0000E+00      0.00
   28.00      4.00     -5.27  -999.99    -5.27      0.0000     -0.00 LINEAR  3.6007E-02   -103.71  0.0000E+00      0.00
   32.00      4.00     -4.17  -999.99    -4.17      0.0000     -0.00 LINEAR  4.0866E-02   -105.86  0.0000E+00      0.00
   36.00      4.00     -3.22  -999.99    -3.22      0.0000     -0.00 LINEAR  4.5595E-02   -108.39  0.0000E+00      0.00
   40.00      4.00     -2.39  -999.99    -2.39      0.0000     -0.00 LINEAR  5.0169E-02   -111.29  0.0000E+00      0.00
   44.00      4.00     -1.66  -999.99    -1.66      0.0000     -0.00 LINEAR  5.4558E-02   -114.54  0.0000E+00      0.00
   48.00      4.00     -1.02  -999.99    -1.02      0.0000     -0.00 LINEAR  5.8736E-02   -118.14  0.0000E+00      0.00
   52.00      4.00     -0.46  -999.99    -0.46      0.0000     -0.00 LINEAR  6.2669E-02   -122.05  0.0000E+00      0.00
   56.00      4.00      0.03  -999.99     0.03      0.0000     -0.00 LINEAR  6.6328E-02   -126.26  0.0000E+00      0.00
   60.00      4.00      0.46  -999.99     0.46      0.0000     -0.00 LINEAR  6.9680E-02   -130.76  0.0000E+00      0.00
   64.00      4.00      0.83  -999.99     0.83      0.0000     -0.00 LINEAR  7.2695E-02   -135.51  0.0000E+00      0.00
   68.00      4.00      1.14  -999.99     1.14      0.0000     -0.00 LINEAR  7.5343E-02   -140.51  0.0000E+00      0.00
   72.00      4.00      1.39  -999.99     1.39      0.0000     -0.00 LINEAR  7.7597E-02   -145.71  0.0000E+00      0.00
   76.00      4.00      1.60  -999.99     1.60      0.0000     -0.00 LINEAR  7.9433E-02   -151.10  0.0000E+00      0.00
   80.00      4.00      1.75  -999.99     1.75      0.0000     -0.00 LINEAR  8.0830E-02   -156.64  0.0000E+00      0.00
   84.00      4.00      1.85  -999.99     1.85      0.0000     -0.00 LINEAR  8.1772E-02   -162.33  0.0000E+00      0.00
   88.00      4.00      1.90  -999.99     1.90      0.0000     -0.00 LINEAR  8.2249E-02   -168.11  0.0000E+00      0.00
   92.00      4.00      1.90  -999.99     1.90      0.0000     -0.00 LINEAR  8.2254E-02   -173.98  0.0000E+00      0.00
   96.00      4.00      1.85  -999.99     1.85      0.0000     -0.00 LINEAR  8.1788E-02   -179.89  0.0000E+00      0.00
  100.00      4.00      1.75  -999.99     1.75      0.0000     -0.00 LINEAR  8.0856E-02    174.18  0.0000E+00      0.00
  104.00      4.00      1.60  -999.99     1.60      0.0000     -0.00 LINEAR  7.9469E-02    168.25  0.0000E+00      0.00
  108.00      4.00      1.40  -999.99     1.40      0.0000     -0.00 LINEAR  7.7643E-02    162.37  0.0000E+00      0.00
  112.00      4.00      1.14  -999.99     1.14      0.0000     -0.00 LINEAR  7.5397E-02    156.55  0.0000E+00      0.00
  116.00      4.00      0.84  -999.99     0.84      0.0000     -0.00 LINEAR  7.2756E-02    150.82  0.0000E+00      0.00
  120.00      4.00      0.47  -999.99     0.47      0.0000     -0.00 LINEAR  6.9747E-02    145.22  0.0000E+00      0.00
  124.00      4.00      0.04  -999.99     0.04      0.0000     -0.00 LINEAR  6.6399E-02    139.76  0.0000E+00      0.00
  128.00      4.00     -0.45  -999.99    -0.45      0.0000     -0.00 LINEAR  6.2744E-02    134.49  0.0000E+00      0.00
  132.00      4.00     -1.01  -999.99    -1.01      0.0000     -0.00 LINEAR  5.8811E-02    129.41  0.0000E+00      0.00
  136.00      4.00     -1.65  -999.99    -1.65      0.0000     -0.00 LINEAR  5.4634E-02    124.56  0.0000E+00      0.00
  140.00      4.00     -2.38  -999.99    -2.38      0.0000     -0.00 LINEAR  5.0243E-02    119.96  0.0000E+00      0.00
  144.00      4.00     -3.21  -999.99    -3.21      0.0000     -0.00 LINEAR  4.5667E-02    115.64  0.0000E+00      0.00
  148.00      4.00     -4.16  -999.99    -4.16      0.0000     -0.00 LINEAR  4.0934E-02    111.60  0.0000E+00      0.00
  152.00      4.00     -5.26  -999.99    -5.26      0.0000     -0.00 LINEAR  3.6068E-02    107.89  0.0000E+00      0.00
  156.00      4.00     -6.55  -999.99    -6.55      0.0000     -0.00 LINEAR  3.1095E-02    104.50  0.0000E+00      0.00
  160.00      4.00     -8.09  -999.99    -8.09      0.0000     -0.00 LINEAR  2.6034E-02    101.46  0.0000E+00      0.00
  164.00      4.00    -10.00  -999.99   -10.00      0.0000     -0.00 LINEAR  2.0904E-02     98.78  0.0000E+00      0.00
  168.00      4.00    -12.47  -999.99   -12.47      0.0000     -0.00 LINEAR  1.5721E-02     96.48  0.0000E+00      0.00
  172.00      4.00    -15.98  -999.99   -15.98      0.0000     -0.00 LINEAR  1.0501E-02     94.57  0.0000E+00      0.00
  176.00      4.00    -21.99  -999.99   -21.99      0.0000     -0.00 LINEAR  5.2564E-03     93.05  0.0000E+00      0.00
  180.00      4.00   -999.99  -999.99  -999.99      0.0000      0.00         7.6878E-13    -88.06  0.0000E+00      0.00
    0.00      8.00   -999.99  -999.99  -999.99      0.0000      0.00         0.0000E+00      0.00  0.0000E+00      0.00
    4.00      8.00    -22.01  -999.99   -22.01      0.0000     -0.00 LINEAR  5.2461E-03    -99.21  0.0000E+00      0.00
    8.00      8.00    -15.99  -999.99   -15.99      0.0000     -0.00 LINEAR  1.0480E-02    -98.87  0.0000E+00      0.00
   12.00      8.00    -12.49  -999.99   -12.49      0.0000     -0.00 LINEAR  1.5691E-02    -98.94  0.0000E+00      0.00
