


                                __________________________________________
                               |                                          |
                               | NUMERICAL ELECTROMAGNETICS CODE (nec2++) |
                               | Translated to 'C++' in Double Precision  |
                               |        Version 1.5.1 [2014-01-02]        |
                               |__________________________________________|



                                -------- STRUCTURE SPECIFICATION --------
                                COORDINATES MUST BE INPUT IN
                                METERS OR BE SCALED TO METERS
                                BEFORE STRUCTURE INPUT IS ENDED
  WIRE                                                                                 SEG FIRST  LAST  TAG
   No:        X1         Y1         Z1         X2         Y2         Z2       RADIUS   No:   SEG   SEG  No:

     1      3.8400     0.8400     0.9200     3.8400     0.8400     1.1500     0.0010     8     1     8    1
     2      3.8400     0.8400     0.6900     3.8400     0.8400     0.9200     0.0010     8     9    16    2
     STRUCTURE SCALED BY FACTOR:    1.00000

     TOTAL SEGMENTS USED: 16   SEGMENTS IN A SYMMETRIC CELL: 16   SYMMETRY FLAG: 0


                               ---------- SEGMENTATION DATA ----------
                                        COORDINATES IN METERS
                            I+ AND I- INDICATE THE SEGMENTS BEFORE AND AFTER I

   SEG    COORDINATES OF SEGM CENTER     SEGM    ORIENTATION ANGLES    WIRE    CONNECTION DATA   TAG
   No:       X         Y         Z      LENGTH     ALPHA      BETA    RADIUS    I-     I    I+   NO:
     1    3.8400    0.8400    0.9344    0.0287   90.0000    0.0000    0.0010    16     1     2     1
     2    3.8400    0.8400    0.9631    0.0287   90.0000    0.0000    0.0010     1     2     3     1
     3    3.8400    0.8400    0.9919    0.0287   90.0000    0.0000    0.0010     2     3     4     1
     4    3.8400    0.8400    1.0206    0.0288   90.0000    0.0000    0.0010     3     4     5     1
     5    3.8400    0.8400    1.0494    0.0288   90.0000    0.0000    0.0010     4     5     6     1
     6    3.8400    0.8400    1.0781    0.0288   90.0000    0.0000    0.0010     5     6     7     1
     7    3.8400    0.8400    1.1069    0.0288   90.0000    0.0000    0.0010     6     7     8     1
     8    3.8400    0.8400    1.1356    0.0287   90.0000    0.0000    0.0010     7     8     0     1
     9    3.8400    0.8400    0.7044    0.0288   90.0000    0.0000    0.0010     0     9    10     2
    10    3.8400    0.8400    0.7331    0.0288   90.0000    0.0000    0.0010     9    10    11     2
    11    3.8400    0.8400    0.7619    0.0288   90.0000    0.0000    0.0010    10    11    12     2
    12    3.8400    0.8400    0.7906    0.0288   90.0000    0.0000    0.0010    11    12    13     2
    13    3.8400    0.8400    0.8194    0.0288   90.0000    0.0000    0.0010    12    13    14     2
    14    3.8400    0.8400    0.8481    0.0288   90.0000    0.0000    0.0010    13    14    15     2
    15    3.8400    0.8400    0.8769    0.0288   90.0000    0.0000    0.0010    14    15    16     2
    16    3.8400    0.8400    0.9056    0.0287   90.0000    0.0000    0.0010    15    16     1     2



*****  DATA CARD N0.   1 GN  -1     0     0     0  0.00000E+00  0.00000E+00  0.00000E+00  0.00000E+00  0.00000E+00  0.00000E+00
*****  DATA CARD N0.   2 FR   0     1     0     0  1.00000E+02  1.00000E+01  0.00000E+00  0.00000E+00  0.00000E+00  0.00000E+00
*****  DATA CARD N0.   3 EX   0     1     1     0  1.00000E+00  0.00000E+00  0.00000E+00  0.00000E+00  0.00000E+00  0.00000E+00
*****  DATA CARD N0.   4 RP   0    46    90  1000  0.00000E+00  0.00000E+00  4.00000E+00  4.00000E+00  0.00000E+00  0.00000E+00


                               --------- FREQUENCY --------
                               FREQUENCY=  1.0000E+02 MHZ
                               WAVELENGTH= 2.9980E+00 METERS


                        APPROXIMATE INTEGRATION EMPLOYED FOR SEGMENTS
                        THAT ARE MORE THAN 1.000 WAVELENGTHS APART
WARNING- SEGMENT[0] LENGTH TOO SMALL (0.009590)
WARNING- SEGMENT[1] LENGTH TOO SMALL (0.009590)
WARNING- SEGMENT[2] LENGTH TOO SMALL (0.009590)
WARNING- SEGMENT[3] LENGTH TOO SMALL (0.009590)
WARNING- SEGMENT[4] LENGTH TOO SMALL (0.009590)
WARNING- SEGMENT[5] LENGTH TOO SMALL (0.009590)
WARNING- SEGMENT[6] LENGTH TOO SMALL (0.009590)
WARNING- SEGMENT[7] LENGTH TOO SMALL (0.009590)
WARNING- SEGMENT[8] LENGTH TOO SMALL (0.009590)
WARNING- SEGMENT[9] LENGTH TOO SMALL (0.009590)
WARNING- SEGMENT[10] LENGTH TOO SMALL (0.009590)
WARNING- SEGMENT[11] LENGTH TOO SMALL (0.009590)
WARNING- SEGMENT[12] LENGTH TOO SMALL (0.009590)
WARNING- SEGMENT[13] LENGTH TOO SMALL (0.009590)
WARNING- SEGMENT[14] LENGTH TOO SMALL (0.009590)
WARNING- SEGMENT[15] LENGTH TOO SMALL (0.009590)



                          ------ STRUCTURE IMPEDANCE LOADING ------
                                 THIS STRUCTURE IS NOT LOADED



                            -------- ANTENNA ENVIRONMENT --------
                            FREE SPACE



                             ---------- MATRIX TIMING ----------
                               FILL= 0 msec  FACTOR: 0 msec


                      ----- ANTENNA INPUT PARAMETERS -----
  TAG   SEG       VOLTAGE (VOLTS)         CURRENT (AMPS)         IMPEDANCE (OHMS)        ADMITTANCE (MHOS)     POWER
  NO.   NO.     REAL      IMAGINARY     REAL      IMAGINARY     REAL      IMAGINARY    REAL       IMAGINARY   (WATTS)
   1     1  1.0000E+00  0.0000E+00  4.4650E-06  9.5791E-04  4.8658E+00 -1.0439E+03  4.4650E-06  9.5791E-04  2.2325E-06







                        ----- CURRENTS AND LOCATION -----
                            DISTANCES IN WAVELENGTHS 

   SEG  TAG    COORDINATES OF SEGM CENTER     SEGM    ------------- CURRENT (AMPS) -------------
   No:  No:       X         Y         Z      LENGTH     REAL      IMAGINARY    MAGN        PHASE
     1    1    1.2809    0.2802    0.3117   0.00959  4.4650E-06  9.5791E-04  9.5792E-04   89.733 
     2    1    1.2809    0.2802    0.3213   0.00959  4.3392E-06  8.3529E-04  8.3531E-04   89.702 
     3    1    1.2809    0.2802    0.3309   0.00959  4.0867E-06  7.0275E-04  7.0276E-04   89.667 
     4    1    1.2809    0.2802    0.3404   0.00959  3.7062E-06  5.8071E-04  5.8072E-04   89.634 
     5    1    1.2809    0.2802    0.3500   0.00959  3.1944E-06  4.6109E-04  4.6111E-04   89.603 
     6    1    1.2809    0.2802    0.3596   0.00959  2.5451E-06  3.4112E-04  3.4113E-04   89.573 
     7    1    1.2809    0.2802    0.3692   0.00959  1.7439E-06  2.1835E-04  2.1835E-04   89.542 
     8    1    1.2809    0.2802    0.3788   0.00959  7.1984E-07  8.4693E-05  8.4697E-05   89.513 
     9    2    1.2809    0.2802    0.2350   0.00959  7.1942E-07  7.5798E-05  7.5801E-05   89.456 
    10    2    1.2809    0.2802    0.2445   0.00959  1.7430E-06  1.9521E-04  1.9521E-04   89.488 
    11    2    1.2809    0.2802    0.2541   0.00959  2.5440E-06  3.0455E-04  3.0456E-04   89.521 
    12    2    1.2809    0.2802    0.2637   0.00959  3.1933E-06  4.1088E-04  4.1089E-04   89.555 
    13    2    1.2809    0.2802    0.2733   0.00959  3.7052E-06  5.1602E-04  5.1603E-04   89.589 
    14    2    1.2809    0.2802    0.2829   0.00959  4.0860E-06  6.2152E-04  6.2154E-04   89.623 
    15    2    1.2809    0.2802    0.2925   0.00959  4.3387E-06  7.2981E-04  7.2982E-04   89.659 
    16    2    1.2809    0.2802    0.3021   0.00959  4.4648E-06  8.4879E-04  8.4880E-04   89.699 






                               ---------- POWER BUDGET ---------
                               INPUT POWER   =  2.2325E-06 Watts
                               RADIATED POWER=  2.2325E-06 Watts
                               STRUCTURE LOSS=  0.0000E+00 Watts
                               NETWORK LOSS  =  0.0000E+00 Watts
                               EFFICIENCY    =  100.00 Percent


                         ----- RADIATION PATTERNS -----
 ---- ANGLES -----     ----- POWER GAINS -----       ---- POLARIZATION ----   ---- E(THETA) ----    ----- E(PHI) ------
  THETA      PHI       VERTC   HORIZ   TOTAL       AXIAL      TILT  SENSE   MAGNITUDE    PHASE    MAGNITUDE     PHASE
 DEGREES   DEGREES        DB       DB       DB       RATIO   DEGREES            VOLTS/M   DEGREES     VOLTS/M   DEGREES
    0.00      0.00   -999.99  -999.99  -999.99      0.0000      0.00         0.0000E+00      0.00  0.0000E+00      0.00
    4.00      0.00    -21.51  -999.99   -21.51      0.0000      0.00 LINEAR  9.7180E-04    -37.42  0.0000E+00      0.00
    8.00      0.00    -15.51  -999.99   -15.51      0.0000      0.00 LINEAR  1.9394E-03     -6.22  0.0000E+00      0.00
   12.00      0.00    -12.02  -999.99   -12.02      0.0000      0.00 LINEAR  2.8988E-03     24.13  0.0000E+00      0.00
   16.00      0.00     -9.57  -999.99    -9.57      0.0000      0.00 LINEAR  3.8456E-03     53.48  0.0000E+00      0.00
   20.00      0.00     -7.69  -999.99    -7.69      0.0000      0.00 LINEAR  4.7758E-03     81.70  0.0000E+00      0.00
   24.00      0.00     -6.17  -999.99    -6.17      0.0000     -0.00 LINEAR  5.6850E-03    108.63  0.0000E+00      0.00
   28.00      0.00     -4.92  -999.99    -4.92      0.0000     -0.00 LINEAR  6.5693E-03    134.16  0.0000E+00      0.00
   32.00      0.00     -3.85  -999.99    -3.85      0.0000     -0.00 LINEAR  7.4243E-03    158.16  0.0000E+00      0.00
   36.00      0.00     -2.94  -999.99    -2.94      0.0000     -0.00 LINEAR  8.2459E-03   -179.49  0.0000E+00      0.00
   40.00      0.00     -2.15  -999.99    -2.15      0.0000     -0.00 LINEAR  9.0300E-03   -158.90  0.0000E+00      0.00
   44.00      0.00     -1.47  -999.99    -1.47      0.0000     -0.00 LINEAR  9.7726E-03   -140.17  0.0000E+00      0.00
   48.00      0.00     -0.87  -999.99    -0.87      0.0000     -0.00 LINEAR  1.0470E-02   -123.39  0.0000E+00      0.00
   52.00      0.00     -0.35  -999.99    -0.35      0.0000     -0.00 LINEAR  1.1117E-02   -108.63  0.0000E+00      0.00
   56.00      0.00      0.11  -999.99     0.11      0.0000     -0.00 LINEAR  1.1712E-02    -95.99  0.0000E+00      0.00
   60.00      0.00      0.50  -999.99     0.50      0.0000      0.00 LINEAR  1.2250E-02    -85.50  0.0000E+00      0.00
   64.00      0.00      0.83  -999.99     0.83      0.0000      0.00 LINEAR  1.2729E-02    -77.24  0.0000E+00      0.00
   68.00      0.00      1.11  -999.99     1.11      0.0000      0.00 LINEAR  1.3145E-02    -71.23  0.0000E+00      0.00
   72.00      0.00      1.34  -999.99     1.34      0.0000      0.00 LINEAR  1.3496E-02    -67.50  0.0000E+00      0.00
   76.00      0.00      1.52  -999.99     1.52      0.0000      0.00 LINEAR  1.3779E-02    -66.08  0.0000E+00      0.00
   80.00      0.00      1.65  -999.99     1.65      0.0000      0.00 LINEAR  1.3993E-02    -66.97  0.0000E+00      0.00
   84.00      0.00      1.74  -999.99     1.74      0.0000      0.00 LINEAR  1.4137E-02    -70.17  0.0000E+00      0.00
   88.00      0.00      1.78  -999.99     1.78      0.0000      0.00 LINEAR  1.4209E-02    -75.65  0.0000E+00      0.00
   92.00      0.00      1.78  -999.99     1.78      0.0000      0.00 LINEAR  1.4209E-02    -83.40  0.0000E+00      0.00
   96.00      0.00      1.74  -999.99     1.74      0.0000     -0.00 LINEAR  1.4137E-02    -93.38  0.0000E+00      0.00
  100.00      0.00      1.65  -999.99     1.65      0.0000     -0.00 LINEAR  1.3994E-02   -105.53  0.0000E+00      0.00
  104.00      0.00      1.52  -999.99     1.52      0.0000     -0.00 LINEAR  1.3779E-02   -119.81  0.0000E+00      0.00
  108.00      0.00      1.34  -999.99     1.34      0.0000     -0.00 LINEAR  1.3496E-02   -136.13  0.0000E+00      0.00
  112.00      0.00      1.11  -999.99     1.11      0.0000     -0.00 LINEAR  1.3145E-02   -154.42  0.0000E+00      0.00
  116.00      0.00      0.83  -999.99     0.83      0.0000     -0.00 LINEAR  1.2729E-02   -174.59  0.0000E+00      0.00
  120.00      0.00      0.50  -999.99     0.50      0.0000     -0.00 LINEAR  1.2251E-02    163.46  0.0000E+00      0.00
  124.00      0.00      0.11  -999.99     0.11      0.0000     -0.00 LINEAR  1.1713E-02    139.83  0.0000E+00      0.00
  128.00      0.00     -0.35  -999.99    -0.35      0.0000     -0.00 LINEAR  1.1118E-02    114.64  0.0000E+00      0.00
  132.00      0.00     -0.87  -999.99    -0.87      0.0000      0.00 LINEAR  1.0470E-02     88.02  0.0000E+00      0.00
  136.00      0.00     -1.47  -999.99    -1.47      0.0000      0.00 LINEAR  9.7735E-03     60.08  0.0000E+00      0.00
  140.00      0.00     -2.15  -999.99    -2.15      0.0000      0.00 LINEAR  9.0309E-03     30.98  0.0000E+00      0.00
  144.00      0.00     -2.94  -999.99    -2.94      0.0000      0.00 LINEAR  8.2468E-03      0.84  0.0000E+00      0.00
  148.00      0.00     -3.85  -999.99    -3.85      0.0000      0.00 LINEAR  7.4251E-03    -30.17  0.0000E+00      0.00
  152.00      0.00     -4.92  -999.99    -4.92      0.0000      0.00 LINEAR  6.5700E-03    -61.92  0.0000E+00      0.00
  156.00      0.00     -6.17  -999.99    -6.17      0.0000     -0.00 LINEAR  5.6857E-03    -94.25  0.0000E+00      0.00
  160.00      0.00     -7.68  -999.99    -7.68      0.0000     -0.00 LINEAR  4.7763E-03   -126.99  0.0000E+00      0.00
  164.00      0.00     -9.57  -999.99    -9.57      0.0000     -0.00 LINEAR  3.8461E-03   -160.00  0.0000E+00      0.00
  168.00      0.00    -12.02  -999.99   -12.02      0.0000     -0.00 LINEAR  2.8991E-03    166.90  0.0000E+00      0.00
  172.00      0.00    -15.51  -999.99   -15.51      0.0000     -0.00 LINEAR  1.9397E-03    133.86  0.0000E+00      0.00
  176.00      0.00    -21.51  -999.99   -21.51      0.0000     -0.00 LINEAR  9.7192E-04    101.04  0.0000E+00      0.00
  180.00      0.00   -999.99  -999.99  -999.99      0.0000      0.00         1.4220E-13   -111.40  0.0000E+00      0.00
    0.00      4.00   -999.99  -999.99  -999.99      0.0000      0.00         0.0000E+00      0.00  0.0000E+00      0.00
    4.00      4.00    -21.51  -999.99   -21.51      0.0000      0.00 LINEAR  9.7180E-04    -37.01  0.0000E+00      0.00
    8.00      4.00    -15.51  -999.99   -15.51      0.0000      0.00 LINEAR  1.9394E-03     -5.40  0.0000E+00      0.00
   12.00      4.00    -12.02  -999.99   -12.02      0.0000      0.00 LINEAR  2.8988E-03     25.36  0.0000E+00      0.00
   16.00      4.00     -9.57  -999.99    -9.57      0.0000      0.00 LINEAR  3.8456E-03     55.11  0.0000E+00      0.00
   20.00      4.00     -7.69  -999.99    -7.69      0.0000      0.00 LINEAR  4.7758E-03     83.72  0.0000E+00      0.00
   24.00      4.00     -6.17  -999.99    -6.17      0.0000     -0.00 LINEAR  5.6850E-03    111.04  0.0000E+00      0.00
   28.00      4.00     -4.92  -999.99    -4.92      0.0000     -0.00 LINEAR  6.5693E-03    136.94  0.0000E+00      0.00
   32.00      4.00     -3.85  -999.99    -3.85      0.0000     -0.00 LINEAR  7.4243E-03    161.30  0.0000E+00      0.00
   36.00      4.00     -2.94  -999.99    -2.94      0.0000     -0.00 LINEAR  8.2459E-03   -176.01  0.0000E+00      0.00
   40.00      4.00     -2.15  -999.99    -2.15      0.0000     -0.00 LINEAR  9.0300E-03   -155.10  0.0000E+00      0.00
   44.00      4.00     -1.47  -999.99    -1.47      0.0000     -0.00 LINEAR  9.7726E-03   -136.06  0.0000E+00      0.00
   48.00      4.00     -0.87  -999.99    -0.87      0.0000     -0.00 LINEAR  1.0470E-02   -118.99  0.0000E+00      0.00
   52.00      4.00     -0.35  -999.99    -0.35      0.0000     -0.00 LINEAR  1.1117E-02   -103.97  0.0000E+00      0.00
   56.00      4.00      0.11  -999.99     0.11      0.0000     -0.00 LINEAR  1.1712E-02    -91.08  0.0000E+00      0.00
   60.00      4.00      0.50  -999.99     0.50      0.0000      0.00 LINEAR  1.2250E-02    -80.38  0.0000E+00      0.00
   64.00      4.00      0.83  -999.99     0.83      0.0000      0.00 LINEAR  1.2729E-02    -71.92  0.0000E+00      0.00
   68.00      4.00      1.11  -999.99     1.11      0.0000      0.00 LINEAR  1.3145E-02    -65.74  0.0000E+00      0.00
   72.00      4.00      1.34  -999.99     1.34      0.0000      0.00 LINEAR  1.3496E-02    -61.88  0.0000E+00      0.00
   76.00      4.00      1.52  -999.99     1.52      0.0000      0.00 LINEAR  1.3779E-02    -60.34  0.0000E+00      0.00
   80.00      4.00      1.65  -999.99     1.65      0.0000      0.00 LINEAR  1.3993E-02    -61.15  0.0000E+00      0.00
   84.00      4.00      1.74  -999.99     1.74      0.0000      0.00 LINEAR  1.4137E-02    -64.28  0.0000E+00      0.00
   88.00      4.00      1.78  -999.99     1.78      0.0000      0.00 LINEAR  1.4209E-02    -69.74  0.0000E+00      0.00
   92.00      4.00      1.78  -999.99     1.78      0.0000      0.00 LINEAR  1.4209E-02    -77.49  0.0000E+00      0.00
   96.00      4.00      1.74  -999.99     1.74      0.0000      0.00 LINEAR  1.4137E-02    -87.50  0.0000E+00      0.00
  100.00      4.00      1.65  -999.99     1.65      0.0000     -0.00 LINEAR  1.3994E-02    -99.71  0.0000E+00      0.00
  104.00      4.00      1.52  -999.99     1.52      0.0000     -0.00 LINEAR  1.3779E-02   -114.07  0.0000E+00      0.00
  108.00      4.00      1.34  -999.99     1.34      0.0000     -0.00 LINEAR  1.3496E-02   -130.50  0.0000E+00      0.00
  112.00      4.00      1.11  -999.99     1.11      0.0000     -0.00 LINEAR  1.3145E-02   -148.94  0.0000E+00      0.00
  116.00      4.00      0.83  -999.99     0.83      0.0000     -0.00 LINEAR  1.2729E-02   -169.27  0.0000E+00      0.00
  120.00      4.00      0.50  -999.99     0.50      0.0000     -0.00 LINEAR  1.2251E-02    168.58  0.0000E+00      0.00
  124.00      4.00      0.11  -999.99     0.11      0.0000     -0.00 LINEAR  1.1713E-02    144.73  0.0000E+00      0.00
  128.00      4.00     -0.35  -999.99    -0.35      0.0000     -0.00 LINEAR  1.1118E-02    119.30  0.0000E+00      0.00
  132.00      4.00     -0.87  -999.99    -0.87      0.0000     -0.00 LINEAR  1.0470E-02     92.41  0.0000E+00      0.00
  136.00      4.00     -1.47  -999.99    -1.47      0.0000      0.00 LINEAR  9.7735E-03     64.19  0.0000E+00      0.00
  140.00      4.00     -2.15  -999.99    -2.15      0.0000      0.00 LINEAR  9.0309E-03     34.78  0.0000E+00      0.00
  144.00      4.00     -2.94  -999.99    -2.94      0.0000      0.00 LINEAR  8.2468E-03      4.32  0.0000E+00      0.00
  148.00      4.00     -3.85  -999.99    -3.85      0.0000      0.00 LINEAR  7.4251E-03    -27.04  0.0000E+00      0.00
  152.00      4.00     -4.92  -999.99    -4.92      0.0000      0.00 LINEAR  6.5700E-03    -59.15  0.0000E+00      0.00
  156.00      4.00     -6.17  -999.99    -6.17      0.0000     -0.00 LINEAR  5.6857E-03    -91.84  0.0000E+00      0.00
  160.00      4.00     -7.68  -999.99    -7.68      0.0000     -0.00 LINEAR  4.7763E-03   -124.97  0.0000E+00      0.00
  164.00      4.00     -9.57  -999.99    -9.57      0.0000     -0.00 LINEAR  3.8461E-03   -158.37  0.0000E+00      0.00
  168.00      4.00    -12.02  -999.99   -12.02      0.0000     -0.00 LINEAR  2.8991E-03    168.13  0.0000E+00      0.00
  172.00      4.00    -15.51  -999.99   -15.51      0.0000     -0.00 LINEAR  1.9397E-03    134.68  0.0000E+00      0.00
  176.00      4.00    -21.51  -999.99   -21.51      0.0000     -0.00 LINEAR  9.7192E-04    101.45  0.0000E+00      0.00
  180.00      4.00   -999.99  -999.99  -999.99      0.0000      0.00         1.4220E-13   -111.40  0.0000E+00      0.00
    0.00      8.00   -999.99  -999.99  -999.99      0.0000      0.00         0.0000E+00      0.00  0.0000E+00      0.00
    4.00      8.00    -21.51  -999.99   -21.51      0.0000      0.00 LINEAR  9.7180E-04    -36.76  0.0000E+00      0.00
    8.00      8.00    -15.51  -999.99   -15.51      0.0000      0.00 LINEAR  1.9394E-03     -4.89  0.0000E+00      0.00
   12.00      8.00    -12.02  -999.99   -12.02      0.0000      0.00 LINEAR  2.8988E-03     26.11  0.0000E+00      0.00
