


                                __________________________________________
                               |                                          |
                               | NUMERICAL ELECTROMAGNETICS CODE (nec2++) |
                               | Translated to 'C++' in Double Precision  |
                               |        Version 1.5.1 [2014-01-02]        |
                               |__________________________________________|



                                -------- STRUCTURE SPECIFICATION --------
                                COORDINATES MUST BE INPUT IN
                                METERS OR BE SCALED TO METERS
                                BEFORE STRUCTURE INPUT IS ENDED
  WIRE                                                                                 SEG FIRST  LAST  TAG
   No:        X1         Y1         Z1         X2         Y2         Z2       RADIUS   No:   SEG   SEG  No:

     1      0.7567     0.5600     1.2500     0.7567     0.5600     1.7300     0.0010     8     1     8    1
     STRUCTURE SCALED BY FACTOR:    1.00000

     TOTAL SEGMENTS USED: 8   SEGMENTS IN A SYMMETRIC CELL: 8   SYMMETRY FLAG: 0


                               ---------- SEGMENTATION DATA ----------
                                        COORDINATES IN METERS
                            I+ AND I- INDICATE THE SEGMENTS BEFORE AND AFTER I

   SEG    COORDINATES OF SEGM CENTER     SEGM    ORIENTATION ANGLES    WIRE    CONNECTION DATA   TAG
   No:       X         Y         Z      LENGTH     ALPHA      BETA    RADIUS    I-     I    I+   NO:
     1    0.7567    0.5600    1.2800    0.0600   90.0000    0.0000    0.0010     0     1     2     1
     2    0.7567    0.5600    1.3400    0.0600   90.0000    0.0000    0.0010     1     2     3     1
     3    0.7567    0.5600    1.4000    0.0600   90.0000    0.0000    0.0010     2     3     4     1
     4    0.7567    0.5600    1.4600    0.0600   90.0000    0.0000    0.0010     3     4     5     1
     5    0.7567    0.5600    1.5200    0.0600   90.0000    0.0000    0.0010     4     5     6     1
     6    0.7567    0.5600    1.5800    0.0600   90.0000    0.0000    0.0010     5     6     7     1
     7    0.7567    0.5600    1.6400    0.0600   90.0000    0.0000    0.0010     6     7     8     1
     8    0.7567    0.5600    1.7000    0.0600   90.0000    0.0000    0.0010     7     8     0     1



*****  DATA CARD N0.   1 GN  -1     0     0     0  0.00000E+00  0.00000E+00  0.00000E+00  0.00000E+00  0.00000E+00  0.00000E+00
*****  DATA CARD N0.   2 FR   0     1     0     0  1.00000E+02  1.00000E+01  0.00000E+00  0.00000E+00  0.00000E+00  0.00000E+00
*****  DATA CARD N0.   3 EX   0     1     1     0  1.00000E+00  0.00000E+00  0.00000E+00  0.00000E+00  0.00000E+00  0.00000E+00
*****  DATA CARD N0.   4 RP   0    46    90  1000  0.00000E+00  0.00000E+00  4.00000E+00  4.00000E+00  0.00000E+00  0.00000E+00


                               --------- FREQUENCY --------
                               FREQUENCY=  1.0000E+02 MHZ
                               WAVELENGTH= 2.9980E+00 METERS


                        APPROXIMATE INTEGRATION EMPLOYED FOR SEGMENTS
                        THAT ARE MORE THAN 1.000 WAVELENGTHS APART



                          ------ STRUCTURE IMPEDANCE LOADING ------
                                 THIS STRUCTURE IS NOT LOADED



                            -------- ANTENNA ENVIRONMENT --------
                            FREE SPACE



                             ---------- MATRIX TIMING ----------
                               FILL= 0 msec  FACTOR: 0 msec


                      ----- ANTENNA INPUT PARAMETERS -----
  TAG   SEG       VOLTAGE (VOLTS)         CURRENT (AMPS)         IMPEDANCE (OHMS)        ADMITTANCE (MHOS)     POWER
  NO.   NO.     REAL      IMAGINARY     REAL      IMAGINARY     REAL      IMAGINARY    REAL       IMAGINARY   (WATTS)
   1     1  1.0000E+00  0.0000E+00  3.8542E-07  2.1831E-04  8.0869E+00 -4.5806E+03  3.8542E-07  2.1831E-04  1.9271E-07







                        ----- CURRENTS AND LOCATION -----
                            DISTANCES IN WAVELENGTHS 

   SEG  TAG    COORDINATES OF SEGM CENTER     SEGM    ------------- CURRENT (AMPS) -------------
   No:  No:       X         Y         Z      LENGTH     REAL      IMAGINARY    MAGN        PHASE
     1    1    0.2524    0.1868    0.4270   0.02001  3.8542E-07  2.1831E-04  2.1831E-04   89.899 
     2    1    0.2524    0.1868    0.4470   0.02001  9.0625E-07  2.3467E-04  2.3467E-04   89.779 
     3    1    0.2524    0.1868    0.4670   0.02001  1.2301E-06  1.9510E-04  1.9511E-04   89.639 
     4    1    0.2524    0.1868    0.4870   0.02001  1.3889E-06  1.6240E-04  1.6241E-04   89.510 
     5    1    0.2524    0.1868    0.5070   0.02001  1.3873E-06  1.2991E-04  1.2992E-04   89.388 
     6    1    0.2524    0.1868    0.5270   0.02001  1.2260E-06  9.6421E-05  9.6429E-05   89.272 
     7    1    0.2524    0.1868    0.5470   0.02001  9.0121E-07  6.1364E-05  6.1371E-05   89.159 
     8    1    0.2524    0.1868    0.5671   0.02001  3.8242E-07  2.3064E-05  2.3067E-05   89.050 






                               ---------- POWER BUDGET ---------
                               INPUT POWER   =  1.9271E-07 Watts
                               RADIATED POWER=  1.9271E-07 Watts
                               STRUCTURE LOSS=  0.0000E+00 Watts
                               NETWORK LOSS  =  0.0000E+00 Watts
                               EFFICIENCY    =  100.00 Percent


                         ----- RADIATION PATTERNS -----
 ---- ANGLES -----     ----- POWER GAINS -----       ---- POLARIZATION ----   ---- E(THETA) ----    ----- E(PHI) ------
  THETA      PHI       VERTC   HORIZ   TOTAL       AXIAL      TILT  SENSE   MAGNITUDE    PHASE    MAGNITUDE     PHASE
 DEGREES   DEGREES        DB       DB       DB       RATIO   DEGREES            VOLTS/M   DEGREES     VOLTS/M   DEGREES
    0.00      0.00   -999.99  -999.99  -999.99      0.0000      0.00         0.0000E+00      0.00  0.0000E+00      0.00
    4.00      0.00    -21.68  -999.99   -21.68      0.0000      0.00 LINEAR  2.8029E-04     -3.46  0.0000E+00      0.00
    8.00      0.00    -15.67  -999.99   -15.67      0.0000      0.00 LINEAR  5.5944E-04      1.60  0.0000E+00      0.00
   12.00      0.00    -12.18  -999.99   -12.18      0.0000      0.00 LINEAR  8.3629E-04      5.77  0.0000E+00      0.00
   16.00      0.00     -9.72  -999.99    -9.72      0.0000      0.00 LINEAR  1.1097E-03      9.04  0.0000E+00      0.00
   20.00      0.00     -7.84  -999.99    -7.84      0.0000      0.00 LINEAR  1.3785E-03     11.39  0.0000E+00      0.00
   24.00      0.00     -6.32  -999.99    -6.32      0.0000      0.00 LINEAR  1.6415E-03     12.80  0.0000E+00      0.00
   28.00      0.00     -5.06  -999.99    -5.06      0.0000      0.00 LINEAR  1.8975E-03     13.27  0.0000E+00      0.00
   32.00      0.00     -4.00  -999.99    -4.00      0.0000      0.00 LINEAR  2.1453E-03     12.80  0.0000E+00      0.00
   36.00      0.00     -3.08  -999.99    -3.08      0.0000      0.00 LINEAR  2.3838E-03     11.38  0.0000E+00      0.00
   40.00      0.00     -2.29  -999.99    -2.29      0.0000      0.00 LINEAR  2.6117E-03      9.03  0.0000E+00      0.00
   44.00      0.00     -1.60  -999.99    -1.60      0.0000      0.00 LINEAR  2.8277E-03      5.76  0.0000E+00      0.00
   48.00      0.00     -1.00  -999.99    -1.00      0.0000      0.00 LINEAR  3.0308E-03      1.58  0.0000E+00      0.00
   52.00      0.00     -0.47  -999.99    -0.47      0.0000      0.00 LINEAR  3.2197E-03     -3.49  0.0000E+00      0.00
   56.00      0.00     -0.01  -999.99    -0.01      0.0000      0.00 LINEAR  3.3934E-03     -9.42  0.0000E+00      0.00
   60.00      0.00      0.38  -999.99     0.38      0.0000      0.00 LINEAR  3.5507E-03    -16.18  0.0000E+00      0.00
   64.00      0.00      0.71  -999.99     0.71      0.0000      0.00 LINEAR  3.6908E-03    -23.74  0.0000E+00      0.00
   68.00      0.00      1.00  -999.99     1.00      0.0000      0.00 LINEAR  3.8126E-03    -32.07  0.0000E+00      0.00
   72.00      0.00      1.23  -999.99     1.23      0.0000      0.00 LINEAR  3.9154E-03    -41.12  0.0000E+00      0.00
   76.00      0.00      1.41  -999.99     1.41      0.0000      0.00 LINEAR  3.9984E-03    -50.85  0.0000E+00      0.00
   80.00      0.00      1.55  -999.99     1.55      0.0000      0.00 LINEAR  4.0611E-03    -61.21  0.0000E+00      0.00
   84.00      0.00      1.63  -999.99     1.63      0.0000      0.00 LINEAR  4.1031E-03    -72.16  0.0000E+00      0.00
   88.00      0.00      1.68  -999.99     1.68      0.0000      0.00 LINEAR  4.1240E-03    -83.63  0.0000E+00      0.00
   92.00      0.00      1.68  -999.99     1.68      0.0000     -0.00 LINEAR  4.1237E-03    -95.57  0.0000E+00      0.00
   96.00      0.00      1.63  -999.99     1.63      0.0000     -0.00 LINEAR  4.1022E-03   -107.92  0.0000E+00      0.00
  100.00      0.00      1.54  -999.99     1.54      0.0000     -0.00 LINEAR  4.0597E-03   -120.63  0.0000E+00      0.00
  104.00      0.00      1.41  -999.99     1.41      0.0000     -0.00 LINEAR  3.9965E-03   -133.63  0.0000E+00      0.00
  108.00      0.00      1.22  -999.99     1.22      0.0000     -0.00 LINEAR  3.9130E-03   -146.86  0.0000E+00      0.00
  112.00      0.00      0.99  -999.99     0.99      0.0000     -0.00 LINEAR  3.8098E-03   -160.25  0.0000E+00      0.00
  116.00      0.00      0.71  -999.99     0.71      0.0000     -0.00 LINEAR  3.6877E-03   -173.73  0.0000E+00      0.00
  120.00      0.00      0.37  -999.99     0.37      0.0000     -0.00 LINEAR  3.5473E-03    172.75  0.0000E+00      0.00
  124.00      0.00     -0.02  -999.99    -0.02      0.0000     -0.00 LINEAR  3.3897E-03    159.27  0.0000E+00      0.00
  128.00      0.00     -0.48  -999.99    -0.48      0.0000     -0.00 LINEAR  3.2159E-03    145.88  0.0000E+00      0.00
  132.00      0.00     -1.01  -999.99    -1.01      0.0000     -0.00 LINEAR  3.0269E-03    132.66  0.0000E+00      0.00
  136.00      0.00     -1.61  -999.99    -1.61      0.0000     -0.00 LINEAR  2.8238E-03    119.67  0.0000E+00      0.00
  140.00      0.00     -2.30  -999.99    -2.30      0.0000     -0.00 LINEAR  2.6078E-03    106.97  0.0000E+00      0.00
  144.00      0.00     -3.10  -999.99    -3.10      0.0000     -0.00 LINEAR  2.3801E-03     94.63  0.0000E+00      0.00
  148.00      0.00     -4.01  -999.99    -4.01      0.0000      0.00 LINEAR  2.1418E-03     82.70  0.0000E+00      0.00
  152.00      0.00     -5.08  -999.99    -5.08      0.0000      0.00 LINEAR  1.8943E-03     71.24  0.0000E+00      0.00
  156.00      0.00     -6.34  -999.99    -6.34      0.0000      0.00 LINEAR  1.6386E-03     60.31  0.0000E+00      0.00
  160.00      0.00     -7.86  -999.99    -7.86      0.0000      0.00 LINEAR  1.3760E-03     49.96  0.0000E+00      0.00
  164.00      0.00     -9.74  -999.99    -9.74      0.0000      0.00 LINEAR  1.1076E-03     40.24  0.0000E+00      0.00
  168.00      0.00    -12.20  -999.99   -12.20      0.0000      0.00 LINEAR  8.3470E-04     31.20  0.0000E+00      0.00
  172.00      0.00    -15.69  -999.99   -15.69      0.0000      0.00 LINEAR  5.5836E-04     22.89  0.0000E+00      0.00
  176.00      0.00    -21.69  -999.99   -21.69      0.0000      0.00 LINEAR  2.7975E-04     15.33  0.0000E+00      0.00
  180.00      0.00   -999.99  -999.99  -999.99      0.0000      0.00         4.0927E-14   -171.42  0.0000E+00      0.00
    0.00      4.00   -999.99  -999.99  -999.99      0.0000      0.00         0.0000E+00      0.00  0.0000E+00      0.00
    4.00      4.00    -21.68  -999.99   -21.68      0.0000      0.00 LINEAR  2.8029E-04     -3.15  0.0000E+00      0.00
    8.00      4.00    -15.67  -999.99   -15.67      0.0000      0.00 LINEAR  5.5944E-04      2.22  0.0000E+00      0.00
   12.00      4.00    -12.18  -999.99   -12.18      0.0000      0.00 LINEAR  8.3629E-04      6.70  0.0000E+00      0.00
   16.00      4.00     -9.72  -999.99    -9.72      0.0000      0.00 LINEAR  1.1097E-03     10.27  0.0000E+00      0.00
   20.00      4.00     -7.84  -999.99    -7.84      0.0000      0.00 LINEAR  1.3785E-03     12.92  0.0000E+00      0.00
   24.00      4.00     -6.32  -999.99    -6.32      0.0000      0.00 LINEAR  1.6415E-03     14.62  0.0000E+00      0.00
   28.00      4.00     -5.06  -999.99    -5.06      0.0000      0.00 LINEAR  1.8975E-03     15.37  0.0000E+00      0.00
   32.00      4.00     -4.00  -999.99    -4.00      0.0000      0.00 LINEAR  2.1453E-03     15.16  0.0000E+00      0.00
   36.00      4.00     -3.08  -999.99    -3.08      0.0000      0.00 LINEAR  2.3838E-03     14.01  0.0000E+00      0.00
   40.00      4.00     -2.29  -999.99    -2.29      0.0000      0.00 LINEAR  2.6117E-03     11.91  0.0000E+00      0.00
   44.00      4.00     -1.60  -999.99    -1.60      0.0000      0.00 LINEAR  2.8277E-03      8.86  0.0000E+00      0.00
   48.00      4.00     -1.00  -999.99    -1.00      0.0000      0.00 LINEAR  3.0308E-03      4.90  0.0000E+00      0.00
   52.00      4.00     -0.47  -999.99    -0.47      0.0000      0.00 LINEAR  3.2197E-03      0.03  0.0000E+00      0.00
   56.00      4.00     -0.01  -999.99    -0.01      0.0000      0.00 LINEAR  3.3934E-03     -5.71  0.0000E+00      0.00
   60.00      4.00      0.38  -999.99     0.38      0.0000      0.00 LINEAR  3.5507E-03    -12.31  0.0000E+00      0.00
   64.00      4.00      0.71  -999.99     0.71      0.0000      0.00 LINEAR  3.6908E-03    -19.73  0.0000E+00      0.00
   68.00      4.00      1.00  -999.99     1.00      0.0000      0.00 LINEAR  3.8126E-03    -27.93  0.0000E+00      0.00
   72.00      4.00      1.23  -999.99     1.23      0.0000      0.00 LINEAR  3.9154E-03    -36.87  0.0000E+00      0.00
   76.00      4.00      1.41  -999.99     1.41      0.0000      0.00 LINEAR  3.9984E-03    -46.52  0.0000E+00      0.00
   80.00      4.00      1.55  -999.99     1.55      0.0000      0.00 LINEAR  4.0611E-03    -56.81  0.0000E+00      0.00
   84.00      4.00      1.63  -999.99     1.63      0.0000      0.00 LINEAR  4.1031E-03    -67.71  0.0000E+00      0.00
   88.00      4.00      1.68  -999.99     1.68      0.0000      0.00 LINEAR  4.1240E-03    -79.16  0.0000E+00      0.00
   92.00      4.00      1.68  -999.99     1.68      0.0000     -0.00 LINEAR  4.1237E-03    -91.10  0.0000E+00      0.00
   96.00      4.00      1.63  -999.99     1.63      0.0000     -0.00 LINEAR  4.1022E-03   -103.48  0.0000E+00      0.00
  100.00      4.00      1.54  -999.99     1.54      0.0000     -0.00 LINEAR  4.0597E-03   -116.23  0.0000E+00      0.00
  104.00      4.00      1.41  -999.99     1.41      0.0000     -0.00 LINEAR  3.9965E-03   -129.29  0.0000E+00      0.00
  108.00      4.00      1.22  -999.99     1.22      0.0000     -0.00 LINEAR  3.9130E-03   -142.61  0.0000E+00      0.00
  112.00      4.00      0.99  -999.99     0.99      0.0000     -0.00 LINEAR  3.8098E-03   -156.10  0.0000E+00      0.00
  116.00      4.00      0.71  -999.99     0.71      0.0000     -0.00 LINEAR  3.6877E-03   -169.71  0.0000E+00      0.00
  120.00      4.00      0.37  -999.99     0.37      0.0000     -0.00 LINEAR  3.5473E-03    176.62  0.0000E+00      0.00
  124.00      4.00     -0.02  -999.99    -0.02      0.0000     -0.00 LINEAR  3.3897E-03    162.97  0.0000E+00      0.00
  128.00      4.00     -0.48  -999.99    -0.48      0.0000     -0.00 LINEAR  3.2159E-03    149.40  0.0000E+00      0.00
  132.00      4.00     -1.01  -999.99    -1.01      0.0000     -0.00 LINEAR  3.0269E-03    135.98  0.0000E+00      0.00
  136.00      4.00     -1.61  -999.99    -1.61      0.0000     -0.00 LINEAR  2.8238E-03    122.77  0.0000E+00      0.00
  140.00      4.00     -2.30  -999.99    -2.30      0.0000     -0.00 LINEAR  2.6078E-03    109.84  0.0000E+00      0.00
  144.00      4.00     -3.10  -999.99    -3.10      0.0000     -0.00 LINEAR  2.3801E-03     97.25  0.0000E+00      0.00
  148.00      4.00     -4.01  -999.99    -4.01      0.0000      0.00 LINEAR  2.1418E-03     85.07  0.0000E+00      0.00
  152.00      4.00     -5.08  -999.99    -5.08      0.0000      0.00 LINEAR  1.8943E-03     73.34  0.0000E+00      0.00
  156.00      4.00     -6.34  -999.99    -6.34      0.0000      0.00 LINEAR  1.6386E-03     62.13  0.0000E+00      0.00
  160.00      4.00     -7.86  -999.99    -7.86      0.0000      0.00 LINEAR  1.3760E-03     51.49  0.0000E+00      0.00
  164.00      4.00     -9.74  -999.99    -9.74      0.0000      0.00 LINEAR  1.1076E-03     41.48  0.0000E+00      0.00
  168.00      4.00    -12.20  -999.99   -12.20      0.0000      0.00 LINEAR  8.3470E-04     32.13  0.0000E+00      0.00
  172.00      4.00    -15.69  -999.99   -15.69      0.0000      0.00 LINEAR  5.5836E-04     23.51  0.0000E+00      0.00
  176.00      4.00    -21.69  -999.99   -21.69      0.0000      0.00 LINEAR  2.7975E-04     15.64  0.0000E+00      0.00
  180.00      4.00   -999.99  -999.99  -999.99      0.0000      0.00         4.0927E-14   -171.42  0.0000E+00      0.00
    0.00      8.00   -999.99  -999.99  -999.99      0.0000      0.00         0.0000E+00      0.00  0.0000E+00      0.00
    4.00      8.00    -21.68  -999.99   -21.68      0.0000      0.00 LINEAR  2.8029E-04     -2.87  0.0000E+00      0.00
    8.00      8.00    -15.67  -999.99   -15.67      0.0000      0.00 LINEAR  5.5944E-04      2.78  0.0000E+00      0.00
   12.00      8.00    -12.18  -999.99   -12.18      0.0000      0.00 LINEAR  8.3629E-04      7.54  0.0000E+00      0.00
   16.00      8.00     -9.72  -999.99    -9.72      0.0000      0.00 LINEAR  1.1097E-03     11.38  0.0000E+00      0.00
   20.00      8.00     -7.84  -999.99    -7.84      0.0000      0.00 LINEAR  1.3785E-03     14.29  0.0000E+00      0.00
   24.00      8.00     -6.32  -999.99    -6.32      0.0000      0.00 LINEAR  1.6415E-03     16.25  0.0000E+00      0.00
   28.00      8.00     -5.06  -999.99    -5.06      0.0000      0.00 LINEAR  1.8975E-03     17.25  0.0000E+00      0.00
   32.00      8.00     -4.00  -999.99    -4.00      0.0000      0.00 LINEAR  2.1453E-03     17.29  0.0000E+00      0.00
   36.00      8.00     -3.08  -999.99    -3.08      0.0000      0.00 LINEAR  2.3838E-03     16.36  0.0000E+00      0.00
   40.00      8.00     -2.29  -999.99    -2.29      0.0000      0.00 LINEAR  2.6117E-03     14.48  0.0000E+00      0.00
   44.00      8.00     -1.60  -999.99    -1.60      0.0000      0.00 LINEAR  2.8277E-03     11.65  0.0000E+00      0.00
   48.00      8.00     -1.00  -999.99    -1.00      0.0000      0.00 LINEAR  3.0308E-03      7.88  0.0000E+00      0.00
   52.00      8.00     -0.47  -999.99    -0.47      0.0000      0.00 LINEAR  3.2197E-03      3.19  0.0000E+00      0.00
   56.00      8.00     -0.01  -999.99    -0.01      0.0000      0.00 LINEAR  3.3934E-03     -2.39  0.0000E+00      0.00
   60.00      8.00      0.38  -999.99     0.38      0.0000      0.00 LINEAR  3.5507E-03     -8.84  0.0000E+00      0.00
   64.00      8.00      0.71  -999.99     0.71      0.0000      0.00 LINEAR  3.6908E-03    -16.13  0.0000E+00      0.00
   68.00      8.00      1.00  -999.99     1.00      0.0000      0.00 LINEAR  3.8126E-03    -24.21  0.0000E+00      0.00
   72.00      8.00      1.23  -999.99     1.23      0.0000      0.00 LINEAR  3.9154E-03    -33.06  0.0000E+00      0.00
   76.00      8.00      1.41  -999.99     1.41      0.0000      0.00 LINEAR  3.9984E-03    -42.63  0.0000E+00      0.00
   80.00      8.00      1.55  -999.99     1.55      0.0000      0.00 LINEAR  4.0611E-03    -52.87  0.0000E+00      0.00
   84.00      8.00      1.63  -999.99     1.63      0.0000      0.00 LINEAR  4.1031E-03    -63.73  0.0000E+00      0.00
   88.00      8.00      1.68  -999.99     1.68      0.0000      0.00 LINEAR  4.1240E-03    -75.16  0.0000E+00      0.00
   92.00      8.00      1.68  -999.99     1.68      0.0000      0.00 LINEAR  4.1237E-03    -87.10  0.0000E+00      0.00
   96.00      8.00      1.63  -999.99     1.63      0.0000     -0.00 LINEAR  4.1022E-03    -99.50  0.0000E+00      0.00
