


                                __________________________________________
                               |                                          |
                               | NUMERICAL ELECTROMAGNETICS CODE (nec2++) |
                               | Translated to 'C++' in Double Precision  |
                               |        Version 1.5.1 [2014-01-01]        |
                               |__________________________________________|



                                -------- STRUCTURE SPECIFICATION --------
                                COORDINATES MUST BE INPUT IN
                                METERS OR BE SCALED TO METERS
                                BEFORE STRUCTURE INPUT IS ENDED
  WIRE                                                                                 SEG FIRST  LAST  TAG
   No:        X1         Y1         Z1         X2         Y2         Z2       RADIUS   No:   SEG   SEG  No:

     1     -0.5080     0.5080     0.0000    -0.5080     0.5080     0.9800     0.0010     8     1     8    1
     STRUCTURE SCALED BY FACTOR:    1.00000

     TOTAL SEGMENTS USED: 8   SEGMENTS IN A SYMMETRIC CELL: 8   SYMMETRY FLAG: 0


                               ---------- SEGMENTATION DATA ----------
                                        COORDINATES IN METERS
                            I+ AND I- INDICATE THE SEGMENTS BEFORE AND AFTER I

   SEG    COORDINATES OF SEGM CENTER     SEGM    ORIENTATION ANGLES    WIRE    CONNECTION DATA   TAG
   No:       X         Y         Z      LENGTH     ALPHA      BETA    RADIUS    I-     I    I+   NO:
     1   -0.5080    0.5080    0.0612    0.1225   90.0000    0.0000    0.0010     0     1     2     1
     2   -0.5080    0.5080    0.1837    0.1225   90.0000    0.0000    0.0010     1     2     3     1
     3   -0.5080    0.5080    0.3063    0.1225   90.0000    0.0000    0.0010     2     3     4     1
     4   -0.5080    0.5080    0.4287    0.1225   90.0000    0.0000    0.0010     3     4     5     1
     5   -0.5080    0.5080    0.5513    0.1225   90.0000    0.0000    0.0010     4     5     6     1
     6   -0.5080    0.5080    0.6738    0.1225   90.0000    0.0000    0.0010     5     6     7     1
     7   -0.5080    0.5080    0.7963    0.1225   90.0000    0.0000    0.0010     6     7     8     1
     8   -0.5080    0.5080    0.9188    0.1225   90.0000    0.0000    0.0010     7     8     0     1



*****  DATA CARD N0.   1 GN  -1     0     0     0  0.00000E+00  0.00000E+00  0.00000E+00  0.00000E+00  0.00000E+00  0.00000E+00
*****  DATA CARD N0.   2 FR   0     1     0     0  1.00000E+02  1.00000E+01  0.00000E+00  0.00000E+00  0.00000E+00  0.00000E+00
*****  DATA CARD N0.   3 EX   0     1     1     0  1.00000E+00  0.00000E+00  0.00000E+00  0.00000E+00  0.00000E+00  0.00000E+00
*****  DATA CARD N0.   4 RP   0    46    90  1000  0.00000E+00  0.00000E+00  4.00000E+00  4.00000E+00  0.00000E+00  0.00000E+00


                               --------- FREQUENCY --------
                               FREQUENCY=  1.0000E+02 MHZ
                               WAVELENGTH= 2.9980E+00 METERS


                        APPROXIMATE INTEGRATION EMPLOYED FOR SEGMENTS
                        THAT ARE MORE THAN 1.000 WAVELENGTHS APART



                          ------ STRUCTURE IMPEDANCE LOADING ------
                                 THIS STRUCTURE IS NOT LOADED



                            -------- ANTENNA ENVIRONMENT --------
                            FREE SPACE



                             ---------- MATRIX TIMING ----------
                               FILL= 0 msec  FACTOR: 0 msec


                      ----- ANTENNA INPUT PARAMETERS -----
  TAG   SEG       VOLTAGE (VOLTS)         CURRENT (AMPS)         IMPEDANCE (OHMS)        ADMITTANCE (MHOS)     POWER
  NO.   NO.     REAL      IMAGINARY     REAL      IMAGINARY     REAL      IMAGINARY    REAL       IMAGINARY   (WATTS)
   1     1  1.0000E+00  0.0000E+00  1.1782E-05  4.2533E-04  6.5077E+01 -2.3493E+03  1.1782E-05  4.2533E-04  5.8910E-06







                        ----- CURRENTS AND LOCATION -----
                            DISTANCES IN WAVELENGTHS 

   SEG  TAG    COORDINATES OF SEGM CENTER     SEGM    ------------- CURRENT (AMPS) -------------
   No:  No:       X         Y         Z      LENGTH     REAL      IMAGINARY    MAGN        PHASE
     1    1   -0.1694    0.1694    0.0204   0.04086  1.1782E-05  4.2533E-04  4.2549E-04   88.413 
     2    1   -0.1694    0.1694    0.0613   0.04086  2.9137E-05  5.4667E-04  5.4745E-04   86.949 
     3    1   -0.1694    0.1694    0.1022   0.04086  4.0620E-05  5.3154E-04  5.3309E-04   85.630 
     4    1   -0.1694    0.1694    0.1430   0.04086  4.6409E-05  4.9504E-04  4.9721E-04   84.644 
     5    1   -0.1694    0.1694    0.1839   0.04086  4.6319E-05  4.2987E-04  4.3236E-04   83.850 
     6    1   -0.1694    0.1694    0.2247   0.04086  4.0383E-05  3.3759E-04  3.4000E-04   83.179 
     7    1   -0.1694    0.1694    0.2656   0.04086  2.8851E-05  2.2177E-04  2.2364E-04   82.588 
     8    1   -0.1694    0.1694    0.3065   0.04086  1.1619E-05  8.3274E-05  8.4081E-05   82.057 






                               ---------- POWER BUDGET ---------
                               INPUT POWER   =  5.8910E-06 Watts
                               RADIATED POWER=  5.8910E-06 Watts
                               STRUCTURE LOSS=  0.0000E+00 Watts
                               NETWORK LOSS  =  0.0000E+00 Watts
                               EFFICIENCY    =  100.00 Percent


                         ----- RADIATION PATTERNS -----
 ---- ANGLES -----     ----- POWER GAINS -----       ---- POLARIZATION ----   ---- E(THETA) ----    ----- E(PHI) ------
  THETA      PHI       VERTC   HORIZ   TOTAL       AXIAL      TILT  SENSE   MAGNITUDE    PHASE    MAGNITUDE     PHASE
 DEGREES   DEGREES        DB       DB       DB       RATIO   DEGREES            VOLTS/M   DEGREES     VOLTS/M   DEGREES
    0.00      0.00   -999.99  -999.99  -999.99      0.0000      0.00         0.0000E+00      0.00  0.0000E+00      0.00
    4.00      0.00    -22.16  -999.99   -22.16      0.0000     -0.00 LINEAR  1.4651E-03   -141.18  0.0000E+00      0.00
    8.00      0.00    -16.15  -999.99   -16.15      0.0000     -0.00 LINEAR  2.9280E-03   -145.76  0.0000E+00      0.00
   12.00      0.00    -12.64  -999.99   -12.64      0.0000     -0.00 LINEAR  4.3860E-03   -150.53  0.0000E+00      0.00
   16.00      0.00    -10.16  -999.99   -10.16      0.0000     -0.00 LINEAR  5.8363E-03   -155.46  0.0000E+00      0.00
   20.00      0.00     -8.24  -999.99    -8.24      0.0000     -0.00 LINEAR  7.2755E-03   -160.53  0.0000E+00      0.00
   24.00      0.00     -6.69  -999.99    -6.69      0.0000     -0.00 LINEAR  8.6996E-03   -165.72  0.0000E+00      0.00
   28.00      0.00     -5.39  -999.99    -5.39      0.0000     -0.00 LINEAR  1.0104E-02   -171.00  0.0000E+00      0.00
   32.00      0.00     -4.28  -999.99    -4.28      0.0000     -0.00 LINEAR  1.1482E-02   -176.35  0.0000E+00      0.00
   36.00      0.00     -3.32  -999.99    -3.32      0.0000     -0.00 LINEAR  1.2827E-02    178.27  0.0000E+00      0.00
   40.00      0.00     -2.48  -999.99    -2.48      0.0000     -0.00 LINEAR  1.4133E-02    172.86  0.0000E+00      0.00
   44.00      0.00     -1.74  -999.99    -1.74      0.0000     -0.00 LINEAR  1.5390E-02    167.47  0.0000E+00      0.00
   48.00      0.00     -1.08  -999.99    -1.08      0.0000     -0.00 LINEAR  1.6589E-02    162.11  0.0000E+00      0.00
   52.00      0.00     -0.51  -999.99    -0.51      0.0000     -0.00 LINEAR  1.7721E-02    156.81  0.0000E+00      0.00
   56.00      0.00     -0.01  -999.99    -0.01      0.0000     -0.00 LINEAR  1.8775E-02    151.60  0.0000E+00      0.00
   60.00      0.00      0.43  -999.99     0.43      0.0000     -0.00 LINEAR  1.9741E-02    146.50  0.0000E+00      0.00
   64.00      0.00      0.80  -999.99     0.80      0.0000     -0.00 LINEAR  2.0610E-02    141.53  0.0000E+00      0.00
   68.00      0.00      1.12  -999.99     1.12      0.0000     -0.00 LINEAR  2.1371E-02    136.73  0.0000E+00      0.00
   72.00      0.00      1.37  -999.99     1.37      0.0000     -0.00 LINEAR  2.2016E-02    132.11  0.0000E+00      0.00
   76.00      0.00      1.58  -999.99     1.58      0.0000     -0.00 LINEAR  2.2537E-02    127.70  0.0000E+00      0.00
   80.00      0.00      1.73  -999.99     1.73      0.0000     -0.00 LINEAR  2.2927E-02    123.52  0.0000E+00      0.00
   84.00      0.00      1.82  -999.99     1.82      0.0000     -0.00 LINEAR  2.3181E-02    119.59  0.0000E+00      0.00
   88.00      0.00      1.87  -999.99     1.87      0.0000     -0.00 LINEAR  2.3297E-02    115.93  0.0000E+00      0.00
   92.00      0.00      1.86  -999.99     1.86      0.0000     -0.00 LINEAR  2.3272E-02    112.56  0.0000E+00      0.00
   96.00      0.00      1.79  -999.99     1.79      0.0000     -0.00 LINEAR  2.3107E-02    109.49  0.0000E+00      0.00
  100.00      0.00      1.68  -999.99     1.68      0.0000     -0.00 LINEAR  2.2805E-02    106.74  0.0000E+00      0.00
  104.00      0.00      1.51  -999.99     1.51      0.0000     -0.00 LINEAR  2.2370E-02    104.33  0.0000E+00      0.00
  108.00      0.00      1.29  -999.99     1.29      0.0000     -0.00 LINEAR  2.1809E-02    102.27  0.0000E+00      0.00
  112.00      0.00      1.02  -999.99     1.02      0.0000     -0.00 LINEAR  2.1127E-02    100.57  0.0000E+00      0.00
  116.00      0.00      0.68  -999.99     0.68      0.0000     -0.00 LINEAR  2.0334E-02     99.23  0.0000E+00      0.00
  120.00      0.00      0.29  -999.99     0.29      0.0000     -0.00 LINEAR  1.9439E-02     98.27  0.0000E+00      0.00
  124.00      0.00     -0.16  -999.99    -0.16      0.0000     -0.00 LINEAR  1.8453E-02     97.69  0.0000E+00      0.00
  128.00      0.00     -0.68  -999.99    -0.68      0.0000     -0.00 LINEAR  1.7386E-02     97.48  0.0000E+00      0.00
  132.00      0.00     -1.26  -999.99    -1.26      0.0000     -0.00 LINEAR  1.6247E-02     97.66  0.0000E+00      0.00
  136.00      0.00     -1.93  -999.99    -1.93      0.0000     -0.00 LINEAR  1.5048E-02     98.22  0.0000E+00      0.00
  140.00      0.00     -2.68  -999.99    -2.68      0.0000     -0.00 LINEAR  1.3798E-02     99.16  0.0000E+00      0.00
  144.00      0.00     -3.54  -999.99    -3.54      0.0000     -0.00 LINEAR  1.2506E-02    100.47  0.0000E+00      0.00
  148.00      0.00     -4.51  -999.99    -4.51      0.0000     -0.00 LINEAR  1.1180E-02    102.15  0.0000E+00      0.00
  152.00      0.00     -5.63  -999.99    -5.63      0.0000     -0.00 LINEAR  9.8264E-03    104.18  0.0000E+00      0.00
  156.00      0.00     -6.94  -999.99    -6.94      0.0000     -0.00 LINEAR  8.4523E-03    106.56  0.0000E+00      0.00
  160.00      0.00     -8.50  -999.99    -8.50      0.0000     -0.00 LINEAR  7.0625E-03    109.27  0.0000E+00      0.00
  164.00      0.00    -10.42  -999.99   -10.42      0.0000     -0.00 LINEAR  5.6613E-03    112.30  0.0000E+00      0.00
  168.00      0.00    -12.91  -999.99   -12.91      0.0000     -0.00 LINEAR  4.2520E-03    115.63  0.0000E+00      0.00
  172.00      0.00    -16.42  -999.99   -16.42      0.0000     -0.00 LINEAR  2.8373E-03    119.26  0.0000E+00      0.00
  176.00      0.00    -22.44  -999.99   -22.44      0.0000     -0.00 LINEAR  1.4194E-03    123.15  0.0000E+00      0.00
  180.00      0.00   -999.99  -999.99  -999.99      0.0000      0.00         2.0756E-13    -52.71  0.0000E+00      0.00
    0.00      4.00   -999.99  -999.99  -999.99      0.0000      0.00         0.0000E+00      0.00  0.0000E+00      0.00
    4.00      4.00    -22.16  -999.99   -22.16      0.0000     -0.00 LINEAR  1.4651E-03   -140.88  0.0000E+00      0.00
    8.00      4.00    -16.15  -999.99   -16.15      0.0000     -0.00 LINEAR  2.9280E-03   -145.15  0.0000E+00      0.00
   12.00      4.00    -12.64  -999.99   -12.64      0.0000     -0.00 LINEAR  4.3860E-03   -149.61  0.0000E+00      0.00
   16.00      4.00    -10.16  -999.99   -10.16      0.0000     -0.00 LINEAR  5.8363E-03   -154.25  0.0000E+00      0.00
   20.00      4.00     -8.24  -999.99    -8.24      0.0000     -0.00 LINEAR  7.2755E-03   -159.03  0.0000E+00      0.00
   24.00      4.00     -6.69  -999.99    -6.69      0.0000     -0.00 LINEAR  8.6996E-03   -163.93  0.0000E+00      0.00
   28.00      4.00     -5.39  -999.99    -5.39      0.0000     -0.00 LINEAR  1.0104E-02   -168.93  0.0000E+00      0.00
   32.00      4.00     -4.28  -999.99    -4.28      0.0000     -0.00 LINEAR  1.1482E-02   -174.01  0.0000E+00      0.00
   36.00      4.00     -3.32  -999.99    -3.32      0.0000     -0.00 LINEAR  1.2827E-02   -179.15  0.0000E+00      0.00
   40.00      4.00     -2.48  -999.99    -2.48      0.0000     -0.00 LINEAR  1.4133E-02    175.69  0.0000E+00      0.00
   44.00      4.00     -1.74  -999.99    -1.74      0.0000     -0.00 LINEAR  1.5390E-02    170.53  0.0000E+00      0.00
   48.00      4.00     -1.08  -999.99    -1.08      0.0000     -0.00 LINEAR  1.6589E-02    165.38  0.0000E+00      0.00
   52.00      4.00     -0.51  -999.99    -0.51      0.0000     -0.00 LINEAR  1.7721E-02    160.28  0.0000E+00      0.00
   56.00      4.00     -0.01  -999.99    -0.01      0.0000     -0.00 LINEAR  1.8775E-02    155.25  0.0000E+00      0.00
   60.00      4.00      0.43  -999.99     0.43      0.0000     -0.00 LINEAR  1.9741E-02    150.31  0.0000E+00      0.00
   64.00      4.00      0.80  -999.99     0.80      0.0000     -0.00 LINEAR  2.0610E-02    145.49  0.0000E+00      0.00
   68.00      4.00      1.12  -999.99     1.12      0.0000     -0.00 LINEAR  2.1371E-02    140.81  0.0000E+00      0.00
   72.00      4.00      1.37  -999.99     1.37      0.0000     -0.00 LINEAR  2.2016E-02    136.30  0.0000E+00      0.00
   76.00      4.00      1.58  -999.99     1.58      0.0000     -0.00 LINEAR  2.2537E-02    131.97  0.0000E+00      0.00
   80.00      4.00      1.73  -999.99     1.73      0.0000     -0.00 LINEAR  2.2927E-02    127.86  0.0000E+00      0.00
   84.00      4.00      1.82  -999.99     1.82      0.0000     -0.00 LINEAR  2.3181E-02    123.97  0.0000E+00      0.00
   88.00      4.00      1.87  -999.99     1.87      0.0000     -0.00 LINEAR  2.3297E-02    120.33  0.0000E+00      0.00
   92.00      4.00      1.86  -999.99     1.86      0.0000     -0.00 LINEAR  2.3272E-02    116.96  0.0000E+00      0.00
   96.00      4.00      1.79  -999.99     1.79      0.0000     -0.00 LINEAR  2.3107E-02    113.87  0.0000E+00      0.00
  100.00      4.00      1.68  -999.99     1.68      0.0000     -0.00 LINEAR  2.2805E-02    111.08  0.0000E+00      0.00
  104.00      4.00      1.51  -999.99     1.51      0.0000     -0.00 LINEAR  2.2370E-02    108.61  0.0000E+00      0.00
  108.00      4.00      1.29  -999.99     1.29      0.0000     -0.00 LINEAR  2.1809E-02    106.46  0.0000E+00      0.00
  112.00      4.00      1.02  -999.99     1.02      0.0000     -0.00 LINEAR  2.1127E-02    104.65  0.0000E+00      0.00
  116.00      4.00      0.68  -999.99     0.68      0.0000     -0.00 LINEAR  2.0334E-02    103.19  0.0000E+00      0.00
  120.00      4.00      0.29  -999.99     0.29      0.0000     -0.00 LINEAR  1.9439E-02    102.08  0.0000E+00      0.00
  124.00      4.00     -0.16  -999.99    -0.16      0.0000     -0.00 LINEAR  1.8453E-02    101.34  0.0000E+00      0.00
  128.00      4.00     -0.68  -999.99    -0.68      0.0000     -0.00 LINEAR  1.7386E-02    100.95  0.0000E+00      0.00
  132.00      4.00     -1.26  -999.99    -1.26      0.0000     -0.00 LINEAR  1.6247E-02    100.94  0.0000E+00      0.00
  136.00      4.00     -1.93  -999.99    -1.93      0.0000     -0.00 LINEAR  1.5048E-02    101.28  0.0000E+00      0.00
  140.00      4.00     -2.68  -999.99    -2.68      0.0000     -0.00 LINEAR  1.3798E-02    101.99  0.0000E+00      0.00
  144.00      4.00     -3.54  -999.99    -3.54      0.0000     -0.00 LINEAR  1.2506E-02    103.06  0.0000E+00      0.00
  148.00      4.00     -4.51  -999.99    -4.51      0.0000     -0.00 LINEAR  1.1180E-02    104.48  0.0000E+00      0.00
  152.00      4.00     -5.63  -999.99    -5.63      0.0000     -0.00 LINEAR  9.8264E-03    106.25  0.0000E+00      0.00
  156.00      4.00     -6.94  -999.99    -6.94      0.0000     -0.00 LINEAR  8.4523E-03    108.35  0.0000E+00      0.00
  160.00      4.00     -8.50  -999.99    -8.50      0.0000     -0.00 LINEAR  7.0625E-03    110.78  0.0000E+00      0.00
  164.00      4.00    -10.42  -999.99   -10.42      0.0000     -0.00 LINEAR  5.6613E-03    113.51  0.0000E+00      0.00
  168.00      4.00    -12.91  -999.99   -12.91      0.0000     -0.00 LINEAR  4.2520E-03    116.55  0.0000E+00      0.00
  172.00      4.00    -16.42  -999.99   -16.42      0.0000     -0.00 LINEAR  2.8373E-03    119.87  0.0000E+00      0.00
  176.00      4.00    -22.44  -999.99   -22.44      0.0000     -0.00 LINEAR  1.4194E-03    123.45  0.0000E+00      0.00
  180.00      4.00   -999.99  -999.99  -999.99      0.0000      0.00         2.0756E-13    -52.71  0.0000E+00      0.00
    0.00      8.00   -999.99  -999.99  -999.99      0.0000      0.00         0.0000E+00      0.00  0.0000E+00      0.00
    4.00      8.00    -22.16  -999.99   -22.16      0.0000     -0.00 LINEAR  1.4651E-03   -140.55  0.0000E+00      0.00
    8.00      8.00    -16.15  -999.99   -16.15      0.0000     -0.00 LINEAR  2.9280E-03   -144.50  0.0000E+00      0.00
   12.00      8.00    -12.64  -999.99   -12.64      0.0000     -0.00 LINEAR  4.3860E-03   -148.64  0.0000E+00      0.00
   16.00      8.00    -10.16  -999.99   -10.16      0.0000     -0.00 LINEAR  5.8363E-03   -152.96  0.0000E+00      0.00
   20.00      8.00     -8.24  -999.99    -8.24      0.0000     -0.00 LINEAR  7.2755E-03   -157.42  0.0000E+00      0.00
   24.00      8.00     -6.69  -999.99    -6.69      0.0000     -0.00 LINEAR  8.6996E-03   -162.02  0.0000E+00      0.00
   28.00      8.00     -5.39  -999.99    -5.39      0.0000     -0.00 LINEAR  1.0104E-02   -166.73  0.0000E+00      0.00
   32.00      8.00     -4.28  -999.99    -4.28      0.0000     -0.00 LINEAR  1.1482E-02   -171.53  0.0000E+00      0.00
   36.00      8.00     -3.32  -999.99    -3.32      0.0000     -0.00 LINEAR  1.2827E-02   -176.39  0.0000E+00      0.00
   40.00      8.00     -2.48  -999.99    -2.48      0.0000     -0.00 LINEAR  1.4133E-02    178.70  0.0000E+00      0.00
   44.00      8.00     -1.74  -999.99    -1.74      0.0000     -0.00 LINEAR  1.5390E-02    173.78  0.0000E+00      0.00
   48.00      8.00     -1.08  -999.99    -1.08      0.0000     -0.00 LINEAR  1.6589E-02    168.86  0.0000E+00      0.00
   52.00      8.00     -0.51  -999.99    -0.51      0.0000     -0.00 LINEAR  1.7721E-02    163.97  0.0000E+00      0.00
   56.00      8.00     -0.01  -999.99    -0.01      0.0000     -0.00 LINEAR  1.8775E-02    159.13  0.0000E+00      0.00
   60.00      8.00      0.43  -999.99     0.43      0.0000     -0.00 LINEAR  1.9741E-02    154.36  0.0000E+00      0.00
   64.00      8.00      0.80  -999.99     0.80      0.0000     -0.00 LINEAR  2.0610E-02    149.70  0.0000E+00      0.00
   68.00      8.00      1.12  -999.99     1.12      0.0000     -0.00 LINEAR  2.1371E-02    145.15  0.0000E+00      0.00
   72.00      8.00      1.37  -999.99     1.37      0.0000     -0.00 LINEAR  2.2016E-02    140.75  0.0000E+00      0.00
   76.00      8.00      1.58  -999.99     1.58      0.0000     -0.00 LINEAR  2.2537E-02    136.51  0.0000E+00      0.00
   80.00      8.00      1.73  -999.99     1.73      0.0000     -0.00 LINEAR  2.2927E-02    132.46  0.0000E+00      0.00
   84.00      8.00      1.82  -999.99     1.82      0.0000     -0.00 LINEAR  2.3181E-02    128.62  0.0000E+00      0.00
   88.00      8.00      1.87  -999.99     1.87      0.0000     -0.00 LINEAR  2.3297E-02    125.01  0.0000E+00      0.00
   92.00      8.00      1.86  -999.99     1.86      0.0000     -0.00 LINEAR  2.3272E-02    121.63  0.0000E+00      0.00
   96.00      8.00      1.79  -999.99     1.79      0.0000     -0.00 LINEAR  2.3107E-02    118.52  0.0000E+00      0.00
